  //configurate node 1/2/4, node 4 as sync producer
  can0  000   [2]  80 01
  can0  602   [8]  40 64 60 00 00 00 00 00
  can0  084   [8]  10 81 11 00 00 00 00 00
  can0  582   [8]  43 64 60 00 00 00 00 00
  can0  601   [8]  23 00 18 01 81 01 00 80
  can0  581   [8]  60 00 18 01 00 00 00 00
  can0  000   [2]  80 02
  can0  084   [8]  10 81 11 00 00 00 00 00
  can0  602   [8]  23 00 18 01 82 01 00 80
  can0  582   [8]  60 00 18 01 00 00 00 00
  can0  601   [8]  2F 00 1A 00 00 00 00 00
  can0  602   [8]  2F 00 1A 00 00 00 00 00
  can0  581   [8]  60 00 1A 00 00 00 00 00
  can0  582   [8]  60 00 1A 00 00 00 00 00
  can0  601   [8]  23 00 1A 01 20 00 02 10
  can0  602   [8]  23 00 1A 01 20 00 02 10
  can0  581   [8]  60 00 1A 01 00 00 00 00
  can0  582   [8]  60 00 1A 01 00 00 00 00
  can0  601   [8]  23 00 1A 02 10 00 00 20
  can0  581   [8]  60 00 1A 02 00 00 00 00
  can0  602   [8]  23 00 1A 02 10 00 00 20
  can0  582   [8]  60 00 1A 02 00 00 00 00
  can0  601   [8]  23 00 1A 03 08 00 61 60
  can0  581   [8]  60 00 1A 03 00 00 00 00
  can0  602   [8]  23 00 1A 03 08 00 61 60
  can0  582   [8]  60 00 1A 03 00 00 00 00
  can0  601   [8]  2F 00 1A 00 03 00 00 00
  can0  602   [8]  2F 00 1A 00 03 00 00 00
  can0  582   [8]  60 00 1A 00 00 00 00 00
  can0  581   [8]  60 00 1A 00 00 00 00 00
  can0  602   [8]  2F 00 18 02 FF 00 00 00
  can0  601   [8]  2F 00 18 02 FF 00 00 00
  can0  582   [8]  60 00 18 02 00 00 00 00
  can0  581   [8]  60 00 18 02 00 00 00 00
  can0  602   [8]  23 00 18 01 82 01 00 00
  can0  601   [8]  23 00 18 01 81 01 00 00
  can0  582   [8]  60 00 18 01 00 00 00 00
  can0  581   [8]  60 00 18 01 00 00 00 00
  can0  601   [8]  23 01 18 01 81 02 00 80
  can0  602   [8]  23 01 18 01 82 02 00 80
  can0  581   [8]  60 01 18 01 00 00 00 00
  can0  582   [8]  60 01 18 01 00 00 00 00
  can0  601   [8]  2F 01 1A 00 00 00 00 00
  can0  602   [8]  2F 01 1A 00 00 00 00 00
  can0  581   [8]  60 01 1A 00 00 00 00 00
  can0  582   [8]  60 01 1A 00 00 00 00 00
  can0  601   [8]  23 01 1A 01 20 00 64 60
  can0  581   [8]  60 01 1A 01 00 00 00 00
  can0  602   [8]  23 01 1A 01 20 00 64 60
  can0  582   [8]  60 01 1A 01 00 00 00 00
  can0  601   [8]  23 01 1A 02 20 00 6C 60
  can0  581   [8]  60 01 1A 02 00 00 00 00
  can0  602   [8]  23 01 1A 02 20 00 6C 60
  can0  582   [8]  60 01 1A 02 00 00 00 00
  can0  601   [8]  2F 01 1A 00 02 00 00 00
  can0  602   [8]  2F 01 1A 00 02 00 00 00
  can0  581   [8]  60 01 1A 00 00 00 00 00
  can0  582   [8]  60 01 1A 00 00 00 00 00
  can0  602   [8]  2F 01 18 02 0A 00 00 00
  can0  601   [8]  2F 01 18 02 0A 00 00 00
  can0  582   [8]  60 01 18 02 00 00 00 00
  can0  581   [8]  60 01 18 02 00 00 00 00
  can0  601   [8]  23 01 18 01 81 02 00 00
  can0  602   [8]  23 01 18 01 82 02 00 00
  can0  581   [8]  60 01 18 01 00 00 00 00
  can0  582   [8]  60 01 18 01 00 00 00 00
  can0  601   [8]  23 00 14 01 01 02 00 80
  can0  602   [8]  23 00 14 01 02 02 00 80
  can0  581   [8]  60 00 14 01 00 00 00 00
  can0  582   [8]  60 00 14 01 00 00 00 00
  can0  601   [8]  2F 00 16 00 00 00 00 00
  can0  602   [8]  2F 00 16 00 00 00 00 00
  can0  581   [8]  60 00 16 00 00 00 00 00
  can0  582   [8]  60 00 16 00 00 00 00 00
  can0  601   [8]  23 00 16 01 10 00 40 60
  can0  602   [8]  23 00 16 01 10 00 40 60
  can0  581   [8]  60 00 16 01 00 00 00 00
  can0  582   [8]  60 00 16 01 00 00 00 00
  can0  601   [8]  2F 00 16 00 01 00 00 00
  can0  602   [8]  2F 00 16 00 01 00 00 00
  can0  581   [8]  60 00 16 00 00 00 00 00
  can0  582   [8]  60 00 16 00 00 00 00 00
  can0  601   [8]  2F 00 14 02 FF 00 00 00
  can0  602   [8]  2F 00 14 02 FF 00 00 00
  can0  581   [8]  60 00 14 02 00 00 00 00
  can0  582   [8]  60 00 14 02 00 00 00 00
  can0  601   [8]  23 00 14 01 01 02 00 00
  can0  602   [8]  23 00 14 01 02 02 00 00
  can0  581   [8]  60 00 14 01 00 00 00 00
  can0  582   [8]  60 00 14 01 00 00 00 00
  can0  601   [8]  23 02 18 01 81 03 00 80
  can0  602   [8]  23 02 18 01 82 03 00 80
  can0  581   [8]  60 02 18 01 00 00 00 00
  can0  582   [8]  60 02 18 01 00 00 00 00
  can0  601   [8]  2F 02 1A 00 00 00 00 00
  can0  602   [8]  2F 02 1A 00 00 00 00 00
  can0  581   [8]  60 02 1A 00 00 00 00 00
  can0  582   [8]  60 02 1A 00 00 00 00 00
  can0  601   [8]  23 02 1A 01 10 00 72 20
  can0  602   [8]  23 02 1A 01 10 00 72 20
  can0  581   [8]  60 02 1A 01 00 00 00 00
  can0  582   [8]  60 02 1A 01 00 00 00 00
  can0  601   [8]  2F 02 1A 00 01 00 00 00
  can0  602   [8]  2F 02 1A 00 01 00 00 00
  can0  604   [8]  40 64 60 00 00 00 00 00
  can0  581   [8]  60 02 1A 00 00 00 00 00
  can0  582   [8]  60 02 1A 00 00 00 00 00
  can0  584   [8]  43 64 60 00 00 00 00 00
  can0  581   [8]  60 02 18 02 00 00 00 00
  can0  582   [8]  60 02 18 02 00 00 00 00
  can0  084   [8]  10 81 11 00 00 00 00 00
  can0  584   [8]  60 00 18 01 00 00 00 00
  can0  601   [8]  2F 02 18 02 FF 00 00 00
  can0  602   [8]  2F 02 18 02 FF 00 00 00
  can0  000   [2]  80 04
  can0  604   [8]  23 00 18 01 84 01 00 80
  can0  601   [8]  23 02 18 01 81 03 00 00
  can0  604   [8]  2F 00 1A 00 00 00 00 00
  can0  581   [8]  60 02 18 01 00 00 00 00
  can0  602   [8]  23 02 18 01 82 03 00 00
  can0  584   [8]  60 00 1A 00 00 00 00 00
  can0  582   [8]  60 02 18 01 00 00 00 00
  can0  601   [8]  23 01 14 01 01 03 00 80
  can0  581   [8]  60 01 14 01 00 00 00 00
  can0  604   [8]  23 00 1A 01 20 00 02 10
  can0  602   [8]  23 01 14 01 02 03 00 80
  can0  584   [8]  60 00 1A 01 00 00 00 00
  can0  601   [8]  2F 01 16 00 00 00 00 00
  can0  582   [8]  60 01 14 01 00 00 00 00
  can0  604   [8]  23 00 1A 02 10 00 00 20
  can0  581   [8]  60 01 16 00 00 00 00 00
  can0  584   [8]  60 00 1A 02 00 00 00 00
  can0  602   [8]  2F 01 16 00 00 00 00 00
  can0  582   [8]  60 01 16 00 00 00 00 00
  can0  601   [8]  23 01 16 01 20 01 C1 60
  can0  604   [8]  23 00 1A 03 08 00 61 60
  can0  581   [8]  60 01 16 01 00 00 00 00
  can0  602   [8]  23 01 16 01 20 01 C1 60
  can0  584   [8]  60 00 1A 03 00 00 00 00
  can0  582   [8]  60 01 16 01 00 00 00 00
  can0  601   [8]  23 01 16 02 20 02 C1 60
  can0  581   [8]  60 01 16 02 00 00 00 00
  can0  604   [8]  2F 00 1A 00 03 00 00 00
  can0  602   [8]  23 01 16 02 20 02 C1 60
  can0  601   [8]  2F 01 16 00 02 00 00 00
  can0  582   [8]  60 01 16 02 00 00 00 00
  can0  584   [8]  60 00 1A 00 00 00 00 00
  can0  581   [8]  60 01 16 00 00 00 00 00
  can0  602   [8]  2F 01 16 00 02 00 00 00
  can0  604   [8]  2F 00 18 02 FF 00 00 00
  can0  582   [8]  60 01 16 00 00 00 00 00
  can0  601   [8]  2F 01 14 02 FF 00 00 00
  can0  584   [8]  60 00 18 02 00 00 00 00
  can0  581   [8]  60 01 14 02 00 00 00 00
  can0  602   [8]  2F 01 14 02 FF 00 00 00
  can0  582   [8]  60 01 14 02 00 00 00 00
  can0  604   [8]  23 00 18 01 84 01 00 00
  can0  080   [0] 
  can0  601   [8]  23 01 14 01 01 03 00 00
  can0  584   [8]  60 00 18 01 00 00 00 00
  can0  581   [8]  60 01 14 01 00 00 00 00
  can0  084   [8]  10 81 11 00 00 00 00 00
  can0  602   [8]  23 01 14 01 02 03 00 00
  can0  604   [8]  23 01 18 01 84 02 00 80
  can0  582   [8]  60 01 14 01 00 00 00 00
  can0  601   [8]  23 03 18 01 81 04 00 80
  can0  584   [8]  60 01 18 01 00 00 00 00
  can0  581   [8]  60 03 18 01 00 00 00 00
  can0  602   [8]  23 03 18 01 82 04 00 80
  can0  582   [8]  60 03 18 01 00 00 00 00
  can0  604   [8]  2F 01 1A 00 00 00 00 00
  can0  601   [8]  23 83 60 00 C4 09 00 00
  can0  584   [8]  60 01 1A 00 00 00 00 00
  can0  602   [8]  23 83 60 00 C4 09 00 00
  can0  581   [8]  60 83 60 00 00 00 00 00
  can0  582   [8]  60 83 60 00 00 00 00 00
  can0  584   [8]  60 01 1A 01 00 00 00 00
  can0  604   [8]  23 01 1A 01 20 00 64 60
  can0  601   [8]  23 85 60 00 E8 03 00 00
  can0  602   [8]  23 85 60 00 E8 03 00 00
  can0  581   [8]  60 85 60 00 00 00 00 00
  can0  604   [8]  23 01 1A 02 20 00 6C 60
  can0  000   [2]  01 01
  can0  582   [8]  60 85 60 00 00 00 00 00
  can0  584   [8]  60 01 1A 02 00 00 00 00
  can0  084   [8]  10 81 11 00 00 00 00 00
  can0  000   [2]  01 02
  can0  084   [8]  10 81 11 00 00 00 00 00
  can0  604   [8]  2F 01 1A 00 02 00 00 00
  can0  584   [8]  60 01 1A 00 00 00 00 00
  can0  604   [8]  2F 01 18 02 0A 00 00 00
  can0  584   [8]  60 01 18 02 00 00 00 00
  can0  080   [0] 
  can0  100   [6]  0E 3B 9D 3C 00 00
  can0  604   [8]  23 01 18 01 84 02 00 00
  can0  584   [8]  60 01 18 01 00 00 00 00
  can0  604   [8]  23 06 10 00 A0 86 01 00
  can0  584   [8]  60 06 10 00 00 00 00 00
  can0  604   [8]  23 05 10 00 80 00 00 40
  can0  584   [8]  60 05 10 00 00 00 00 00
  can0  604   [8]  23 00 14 01 04 02 00 80
  can0  584   [8]  60 00 14 01 00 00 00 00
  can0  604   [8]  2F 00 16 00 00 00 00 00
  can0  584   [8]  60 00 16 00 00 00 00 00
  can0  604   [8]  23 00 16 01 10 00 40 60
  can0  584   [8]  60 00 16 01 00 00 00 00
  can0  604   [8]  2F 00 16 00 01 00 00 00
  can0  584   [8]  60 00 16 00 00 00 00 00
  can0  604   [8]  2F 00 14 02 FF 00 00 00
  can0  584   [8]  60 00 14 02 00 00 00 00
  can0  080   [0] 
  can0  084   [8]  10 81 11 00 00 00 00 00
  can0  604   [8]  23 00 14 01 04 02 00 00
  can0  584   [8]  60 00 14 01 00 00 00 00
  can0  604   [8]  23 02 18 01 84 03 00 80
  can0  584   [8]  60 02 18 01 00 00 00 00
  can0  604   [8]  2F 02 1A 00 00 00 00 00
  can0  584   [8]  60 02 1A 00 00 00 00 00
  can0  604   [8]  23 02 1A 01 10 00 72 20
  can0  584   [8]  60 02 1A 01 00 00 00 00
  can0  604   [8]  2F 02 1A 00 01 00 00 00
  can0  584   [8]  60 02 1A 00 00 00 00 00
  can0  604   [8]  2F 02 18 02 FF 00 00 00
  can0  584   [8]  60 02 18 02 00 00 00 00
  can0  604   [8]  23 02 18 01 84 03 00 00
  can0  584   [8]  60 02 18 01 00 00 00 00
  can0  604   [8]  23 01 14 01 04 03 00 80
  can0  584   [8]  60 01 14 01 00 00 00 00
  can0  604   [8]  2F 01 16 00 00 00 00 00
  can0  584   [8]  60 01 16 00 00 00 00 00
  can0  604   [8]  23 01 16 01 20 01 C1 60
  can0  584   [8]  60 01 16 01 00 00 00 00
  can0  604   [8]  23 01 16 02 20 02 C1 60
  can0  584   [8]  60 01 16 02 00 00 00 00
  can0  604   [8]  2F 01 16 00 02 00 00 00
  can0  584   [8]  60 01 16 00 00 00 00 00
  can0  604   [8]  2F 01 14 02 FF 00 00 00
  can0  584   [8]  60 01 14 02 00 00 00 00
  can0  604   [8]  23 01 14 01 04 03 00 00
  can0  584   [8]  60 01 14 01 00 00 00 00
  can0  604   [8]  23 03 18 01 84 04 00 80
  can0  584   [8]  60 03 18 01 00 00 00 00
  can0  080   [0] 
  can0  084   [8]  10 81 11 00 00 00 00 00
  can0  604   [8]  23 83 60 00 D7 0F 00 00
  can0  584   [8]  60 83 60 00 00 00 00 00
  can0  604   [8]  23 85 60 00 D7 0F 00 00
  can0  584   [8]  60 85 60 00 00 00 00 00
  can0  000   [2]  01 04
  //finish

  //node 4 report error
  can0  084   [8]  10 81 11 00 00 00 00 00
  can0  080   [0] 
  can0  084   [8]  10 81 11 00 00 00 00 00
  can0  080   [0] 
  can0  084   [8]  10 81 11 00 00 00 00 00
  can0  080   [0] 
  can0  084   [8]  10 81 11 00 00 00 00 00
  can0  080   [0] 
  can0  200   [6]  02 14 98 2B 00 00
  can0  100   [6]  44 C1 9E 3C 00 00
  can0  080   [0] 
  can0  084   [8]  10 81 11 00 00 00 00 00
  can0  080   [0] 
  can0  084   [8]  10 81 11 00 00 00 00 00
  can0  282   [8]  00 00 00 00 00 00 00 00
  can0  281   [8]  00 00 00 00 00 00 00 00
  //node 1/2 report position and speed every 10 sync message, but node 4 doesn't report


  can0  080   [0] 
  can0  084   [8]  10 81 11 00 00 00 00 00
  can0  080   [0] 
  can0  084   [8]  10 81 11 00 00 00 00 00
  can0  080   [0] 
  can0  084   [8]  10 81 11 00 00 00 00 00
  can0  080   [0] 
  can0  100   [6]  E2 47 A0 3C 00 00
  can0  080   [0] 
  can0  084   [8]  10 81 11 00 00 00 00 00
  can0  080   [0] 
  can0  084   [8]  10 81 11 00 00 00 00 00
  can0  080   [0] 
  can0  084   [8]  10 81 11 00 00 00 00 00
  can0  080   [0] 
  can0  084   [8]  10 81 11 00 00 00 00 00
  can0  080   [0] 
  can0  084   [8]  10 81 11 00 00 00 00 00
  can0  080   [0] 
  can0  100   [6]  84 CE A1 3C 00 00
  can0  282   [8]  00 00 00 00 00 00 00 00
  can0  281   [8]  00 00 00 00 00 00 00 00
  can0  080   [0] 
  can0  084   [8]  10 81 11 00 00 00 00 00
  can0  080   [0] 
  can0  084   [8]  10 81 11 00 00 00 00 00
  can0  080   [0] 
  can0  084   [8]  10 81 11 00 00 00 00 00
  can0  080   [0] 
  can0  084   [8]  10 81 11 00 00 00 00 00
  can0  080   [0] 
  can0  084   [8]  10 81 11 00 00 00 00 00
  can0  080   [0] 
  can0  100   [6]  24 55 A3 3C 00 00
  can0  080   [0] 
  can0  084   [8]  10 81 11 00 00 00 00 00
  can0  080   [0] 
  can0  084   [8]  10 81 11 00 00 00 00 00
  can0  080   [0] 
  can0  084   [8]  10 81 11 00 00 00 00 00
  can0  080   [0] 
  can0  084   [8]  10 81 11 00 00 00 00 00
  can0  282   [8]  00 00 00 00 00 00 00 00
  can0  281   [8]  00 00 00 00 00 00 00 00
  can0  080   [0] 
  can0  084   [8]  10 81 11 00 00 00 00 00
  can0  080   [0] 
  can0  100   [6]  C2 DB A4 3C 00 00
  can0  080   [0] 
  can0  084   [8]  10 81 11 00 00 00 00 00
  can0  080   [0] 
  can0  084   [8]  10 81 11 00 00 00 00 00
  can0  080   [0] 
  can0  084   [8]  10 81 11 00 00 00 00 00
  can0  080   [0] 
  can0  084   [8]  10 81 11 00 00 00 00 00
  can0  080   [0] 
  can0  084   [8]  10 81 11 00 00 00 00 00
  can0  080   [0] 
  can0  100   [6]  62 62 A6 3C 00 00
  can0  080   [0] 
  can0  084   [8]  10 81 11 00 00 00 00 00
  can0  080   [0] 
  can0  084   [8]  10 81 11 00 00 00 00 00
  can0  282   [8]  00 00 00 00 00 00 00 00
  can0  281   [8]  00 00 00 00 00 00 00 00
  can0  080   [0] 
  can0  084   [8]  10 81 11 00 00 00 00 00
  can0  080   [0] 
  can0  084   [8]  10 81 11 00 00 00 00 00
  can0  080   [0] 
  can0  084   [8]  10 81 11 00 00 00 00 00
  can0  080   [0] 
  can0  100   [6]  02 E9 A7 3C 00 00
  can0  080   [0] 
  can0  084   [8]  10 81 11 00 00 00 00 00
  can0  080   [0] 
  can0  084   [8]  10 81 11 00 00 00 00 00
  can0  080   [0] 
  can0  084   [8]  10 81 11 00 00 00 00 00
  can0  080   [0] 
  can0  084   [8]  10 81 11 00 00 00 00 00
  can0  080   [0] 
  can0  084   [8]  10 81 11 00 00 00 00 00
  can0  080   [0] 
  can0  100   [6]  28 6F A9 3C 00 00
  can0  282   [8]  00 00 00 00 00 00 00 00
  can0  281   [8]  00 00 00 00 00 00 00 00