***BUSMASTER Ver 3.2.2***
***PROTOCOL CAN***
***NOTE: PLEASE DO NOT EDIT THIS DOCUMENT***
***[START LOGGING SESSION]***
***START DATE AND TIME 25:7:2022 13:59:10:398***
***HEX***
***SYSTEM MODE***
***START CHANNEL BAUD RATE***
***CHANNEL 1 - Kvaser - Kvaser Leaf Light v2 #0 (Channel 0), Serial Number- 0, Firmware- 0x00000199 0x0004000f - 250000 bps***
***END CHANNEL BAUD RATE***
***START DATABASE FILES***
***END DATABASE FILES***
***<Time><Tx/Rx><Channel><CAN ID><Type><DLC><DataBytes>***
13:59:15:3501 Rx 1 0x080 s 0 
13:59:15:3691 Rx 1 0x080 s 0 
13:59:15:3891 Rx 1 0x080 s 0 
13:59:15:4101 Rx 1 0x080 s 0 
13:59:15:4301 Rx 1 0x080 s 0 
13:59:15:4491 Rx 1 0x080 s 0 
13:59:15:4701 Rx 1 0x080 s 0 
13:59:15:4891 Rx 1 0x080 s 0 
13:59:15:5091 Rx 1 0x080 s 0 
13:59:15:5301 Rx 1 0x080 s 0 
13:59:15:5501 Rx 1 0x080 s 0 
13:59:15:5691 Rx 1 0x080 s 0 
13:59:15:5891 Rx 1 0x080 s 0 
13:59:15:6101 Rx 1 0x080 s 0 
13:59:15:6291 Rx 1 0x080 s 0 
13:59:15:6491 Rx 1 0x080 s 0 
13:59:15:6701 Rx 1 0x080 s 0 
13:59:15:6891 Rx 1 0x080 s 0 
13:59:15:7091 Rx 1 0x080 s 0 
13:59:15:7291 Rx 1 0x080 s 0 
13:59:15:7491 Rx 1 0x080 s 0 
13:59:15:7691 Rx 1 0x080 s 0 
13:59:15:7901 Rx 1 0x080 s 0 
13:59:15:8091 Rx 1 0x080 s 0 
13:59:15:8291 Rx 1 0x080 s 0 
13:59:15:8491 Rx 1 0x080 s 0 
13:59:15:8691 Rx 1 0x080 s 0 
13:59:15:8901 Rx 1 0x080 s 0 
13:59:15:9101 Rx 1 0x080 s 0 
13:59:15:9301 Rx 1 0x080 s 0 
13:59:15:9501 Rx 1 0x080 s 0 
13:59:15:9701 Rx 1 0x080 s 0 
13:59:15:9901 Rx 1 0x080 s 0 
13:59:16:0101 Rx 1 0x080 s 0 
13:59:16:0311 Rx 1 0x080 s 0 
13:59:16:0501 Rx 1 0x080 s 0 
13:59:16:0711 Rx 1 0x080 s 0 
13:59:16:0901 Rx 1 0x080 s 0 
13:59:16:1101 Rx 1 0x080 s 0 
13:59:16:1301 Rx 1 0x080 s 0 
13:59:16:1511 Rx 1 0x080 s 0 
13:59:16:1701 Rx 1 0x080 s 0 
13:59:16:1911 Rx 1 0x080 s 0 
13:59:16:2121 Rx 1 0x080 s 0 
13:59:16:2321 Rx 1 0x080 s 0 
13:59:16:2521 Rx 1 0x080 s 0 
13:59:16:2721 Rx 1 0x080 s 0 
13:59:16:2921 Rx 1 0x080 s 0 
13:59:16:3121 Rx 1 0x080 s 0 
13:59:16:3321 Rx 1 0x080 s 0 
13:59:16:3521 Rx 1 0x080 s 0 
13:59:16:3721 Rx 1 0x080 s 0 
13:59:16:3921 Rx 1 0x080 s 0 
13:59:16:4121 Rx 1 0x080 s 0 
13:59:16:4321 Rx 1 0x080 s 0 
13:59:16:4521 Rx 1 0x080 s 0 
13:59:16:4721 Rx 1 0x080 s 0 
13:59:16:4921 Rx 1 0x080 s 0 
13:59:16:5121 Rx 1 0x080 s 0 
13:59:16:5331 Rx 1 0x080 s 0 
13:59:16:5521 Rx 1 0x080 s 0 
13:59:16:5721 Rx 1 0x080 s 0 
13:59:16:5921 Rx 1 0x080 s 0 
13:59:16:6121 Rx 1 0x080 s 0 
13:59:16:6321 Rx 1 0x080 s 0 
13:59:16:6521 Rx 1 0x080 s 0 
13:59:16:6721 Rx 1 0x080 s 0 
13:59:16:6921 Rx 1 0x080 s 0 
13:59:16:7121 Rx 1 0x080 s 0 
13:59:16:7331 Rx 1 0x080 s 0 
13:59:16:7531 Rx 1 0x080 s 0 
13:59:16:7731 Rx 1 0x080 s 0 
13:59:16:7931 Rx 1 0x080 s 0 
13:59:16:8131 Rx 1 0x080 s 0 
13:59:16:8331 Rx 1 0x080 s 0 
13:59:16:8541 Rx 1 0x080 s 0 
13:59:16:8731 Rx 1 0x080 s 0 
13:59:16:8941 Rx 1 0x080 s 0 
13:59:16:9131 Rx 1 0x080 s 0 
13:59:16:9331 Rx 1 0x080 s 0 
13:59:16:9541 Rx 1 0x080 s 0 
13:59:16:9731 Rx 1 0x080 s 0 
13:59:16:9941 Rx 1 0x080 s 0 
13:59:17:0131 Rx 1 0x080 s 0 
13:59:17:0341 Rx 1 0x080 s 0 
13:59:17:0541 Rx 1 0x080 s 0 
13:59:17:0741 Rx 1 0x080 s 0 
13:59:17:0951 Rx 1 0x080 s 0 
13:59:17:1141 Rx 1 0x080 s 0 
13:59:17:1351 Rx 1 0x080 s 0 
13:59:17:1541 Rx 1 0x080 s 0 
13:59:17:1751 Rx 1 0x080 s 0 
13:59:17:1951 Rx 1 0x080 s 0 
13:59:17:2141 Rx 1 0x080 s 0 
13:59:17:2351 Rx 1 0x080 s 0 
13:59:17:2551 Rx 1 0x080 s 0 
13:59:17:2761 Rx 1 0x080 s 0 
13:59:17:2951 Rx 1 0x080 s 0 
13:59:17:3151 Rx 1 0x080 s 0 
13:59:17:3361 Rx 1 0x080 s 0 
13:59:17:3551 Rx 1 0x080 s 0 
13:59:17:3751 Rx 1 0x080 s 0 
13:59:17:3961 Rx 1 0x080 s 0 
13:59:17:4061 Rx 1 0x608 s 8 40 00 10 00 00 00 00 00 
13:59:17:4161 Rx 1 0x080 s 0 
13:59:17:4351 Rx 1 0x080 s 0 
13:59:17:4561 Rx 1 0x080 s 0 
13:59:17:4871 Rx 1 0x080 s 0 
13:59:17:5071 Rx 1 0x080 s 0 
13:59:17:5271 Rx 1 0x080 s 0 
13:59:17:5471 Rx 1 0x080 s 0 
13:59:17:5671 Rx 1 0x080 s 0 
13:59:17:5871 Rx 1 0x080 s 0 
13:59:17:6071 Rx 1 0x080 s 0 
13:59:17:6271 Rx 1 0x080 s 0 
13:59:17:6461 Rx 1 0x080 s 0 
13:59:17:6671 Rx 1 0x080 s 0 
13:59:17:6861 Rx 1 0x080 s 0 
13:59:17:7071 Rx 1 0x080 s 0 
13:59:17:7271 Rx 1 0x080 s 0 
13:59:17:7471 Rx 1 0x080 s 0 
13:59:17:7671 Rx 1 0x080 s 0 
13:59:17:7871 Rx 1 0x080 s 0 
13:59:17:8071 Rx 1 0x080 s 0 
13:59:17:8281 Rx 1 0x080 s 0 
13:59:17:8471 Rx 1 0x080 s 0 
13:59:17:8671 Rx 1 0x080 s 0 
13:59:17:8871 Rx 1 0x080 s 0 
13:59:17:9071 Rx 1 0x080 s 0 
13:59:17:9271 Rx 1 0x080 s 0 
13:59:17:9471 Rx 1 0x080 s 0 
13:59:17:9671 Rx 1 0x080 s 0 
13:59:17:9871 Rx 1 0x080 s 0 
13:59:18:0071 Rx 1 0x080 s 0 
13:59:18:0271 Rx 1 0x080 s 0 
13:59:18:0471 Rx 1 0x080 s 0 
13:59:18:0671 Rx 1 0x080 s 0 
13:59:18:0871 Rx 1 0x080 s 0 
13:59:18:1071 Rx 1 0x080 s 0 
13:59:18:1271 Rx 1 0x080 s 0 
13:59:18:1471 Rx 1 0x080 s 0 
13:59:18:1671 Rx 1 0x080 s 0 
13:59:18:1871 Rx 1 0x080 s 0 
13:59:18:2071 Rx 1 0x080 s 0 
13:59:18:2271 Rx 1 0x080 s 0 
13:59:18:2471 Rx 1 0x080 s 0 
13:59:18:2681 Rx 1 0x080 s 0 
13:59:18:2871 Rx 1 0x080 s 0 
13:59:18:3071 Rx 1 0x080 s 0 
13:59:18:3281 Rx 1 0x080 s 0 
13:59:18:3471 Rx 1 0x080 s 0 
13:59:18:3671 Rx 1 0x080 s 0 
13:59:18:3871 Rx 1 0x080 s 0 
13:59:18:4071 Rx 1 0x080 s 0 
13:59:18:4091 Rx 1 0x608 s 8 80 00 10 00 00 00 04 05 
13:59:18:4181 Rx 1 0x608 s 8 40 00 10 00 00 00 00 00 
13:59:18:4271 Rx 1 0x080 s 0 
13:59:18:4481 Rx 1 0x080 s 0 
13:59:18:4681 Rx 1 0x080 s 0 
13:59:18:4871 Rx 1 0x080 s 0 
13:59:18:5081 Rx 1 0x080 s 0 
13:59:18:5281 Rx 1 0x080 s 0 
13:59:18:5481 Rx 1 0x080 s 0 
13:59:18:5681 Rx 1 0x080 s 0 
13:59:18:5881 Rx 1 0x080 s 0 
13:59:18:6081 Rx 1 0x080 s 0 
13:59:18:6281 Rx 1 0x080 s 0 
13:59:18:6481 Rx 1 0x080 s 0 
13:59:18:6681 Rx 1 0x080 s 0 
13:59:18:6881 Rx 1 0x080 s 0 
13:59:18:7081 Rx 1 0x080 s 0 
13:59:18:7281 Rx 1 0x080 s 0 
13:59:18:7491 Rx 1 0x080 s 0 
13:59:18:7691 Rx 1 0x080 s 0 
13:59:18:7881 Rx 1 0x080 s 0 
13:59:18:8091 Rx 1 0x080 s 0 
13:59:18:8291 Rx 1 0x080 s 0 
13:59:18:8491 Rx 1 0x080 s 0 
13:59:18:8691 Rx 1 0x080 s 0 
13:59:18:8891 Rx 1 0x080 s 0 
13:59:18:9091 Rx 1 0x080 s 0 
13:59:18:9291 Rx 1 0x080 s 0 
13:59:18:9491 Rx 1 0x080 s 0 
13:59:18:9691 Rx 1 0x080 s 0 
13:59:18:9891 Rx 1 0x080 s 0 
13:59:19:0091 Rx 1 0x080 s 0 
13:59:19:0291 Rx 1 0x080 s 0 
13:59:19:0491 Rx 1 0x080 s 0 
13:59:19:0691 Rx 1 0x080 s 0 
13:59:19:0891 Rx 1 0x080 s 0 
13:59:19:1091 Rx 1 0x080 s 0 
13:59:19:1291 Rx 1 0x080 s 0 
13:59:19:1491 Rx 1 0x080 s 0 
13:59:19:1691 Rx 1 0x080 s 0 
13:59:19:1891 Rx 1 0x080 s 0 
13:59:19:2091 Rx 1 0x080 s 0 
13:59:19:2291 Rx 1 0x080 s 0 
13:59:19:2491 Rx 1 0x080 s 0 
13:59:19:2691 Rx 1 0x080 s 0 
13:59:19:2891 Rx 1 0x080 s 0 
13:59:19:3091 Rx 1 0x080 s 0 
13:59:19:3291 Rx 1 0x080 s 0 
13:59:19:3491 Rx 1 0x080 s 0 
13:59:19:3701 Rx 1 0x080 s 0 
13:59:19:3911 Rx 1 0x080 s 0 
13:59:19:4101 Rx 1 0x080 s 0 
13:59:19:4211 Rx 1 0x608 s 8 80 00 10 00 00 00 04 05 
13:59:19:4291 Rx 1 0x080 s 0 
13:59:19:4301 Rx 1 0x608 s 8 40 00 10 00 00 00 00 00 
13:59:19:4511 Rx 1 0x080 s 0 
13:59:19:4701 Rx 1 0x080 s 0 
13:59:19:4901 Rx 1 0x080 s 0 
13:59:19:5111 Rx 1 0x080 s 0 
13:59:19:5301 Rx 1 0x080 s 0 
13:59:19:5501 Rx 1 0x080 s 0 
13:59:19:5701 Rx 1 0x080 s 0 
13:59:19:5901 Rx 1 0x080 s 0 
13:59:19:6101 Rx 1 0x080 s 0 
13:59:19:6311 Rx 1 0x080 s 0 
13:59:19:6511 Rx 1 0x080 s 0 
13:59:19:6721 Rx 1 0x080 s 0 
13:59:19:6921 Rx 1 0x080 s 0 
13:59:19:7121 Rx 1 0x080 s 0 
13:59:19:7321 Rx 1 0x080 s 0 
13:59:19:7521 Rx 1 0x080 s 0 
13:59:19:7721 Rx 1 0x080 s 0 
13:59:19:7921 Rx 1 0x080 s 0 
13:59:19:8111 Rx 1 0x080 s 0 
13:59:19:8321 Rx 1 0x080 s 0 
13:59:19:8521 Rx 1 0x080 s 0 
13:59:19:8721 Rx 1 0x080 s 0 
13:59:19:8921 Rx 1 0x080 s 0 
13:59:19:9121 Rx 1 0x080 s 0 
13:59:19:9321 Rx 1 0x080 s 0 
13:59:19:9521 Rx 1 0x080 s 0 
13:59:19:9721 Rx 1 0x080 s 0 
13:59:19:9921 Rx 1 0x080 s 0 
13:59:20:0121 Rx 1 0x080 s 0 
13:59:20:0321 Rx 1 0x080 s 0 
13:59:20:0521 Rx 1 0x080 s 0 
13:59:20:0721 Rx 1 0x080 s 0 
13:59:20:0921 Rx 1 0x080 s 0 
13:59:20:1131 Rx 1 0x080 s 0 
13:59:20:1321 Rx 1 0x080 s 0 
13:59:20:1521 Rx 1 0x080 s 0 
13:59:20:1731 Rx 1 0x080 s 0 
13:59:20:1931 Rx 1 0x080 s 0 
13:59:20:2131 Rx 1 0x080 s 0 
13:59:20:2331 Rx 1 0x080 s 0 
13:59:20:2531 Rx 1 0x080 s 0 
13:59:20:2731 Rx 1 0x080 s 0 
13:59:20:2931 Rx 1 0x080 s 0 
13:59:20:3131 Rx 1 0x080 s 0 
13:59:20:3331 Rx 1 0x080 s 0 
13:59:20:3531 Rx 1 0x080 s 0 
13:59:20:3731 Rx 1 0x080 s 0 
13:59:20:3931 Rx 1 0x080 s 0 
13:59:20:4131 Rx 1 0x080 s 0 
13:59:20:4331 Rx 1 0x080 s 0 
13:59:20:4351 Rx 1 0x608 s 8 80 00 10 00 00 00 04 05 
13:59:20:4431 Rx 1 0x608 s 8 40 00 10 00 00 00 00 00 
13:59:20:4531 Rx 1 0x080 s 0 
13:59:20:4731 Rx 1 0x080 s 0 
13:59:20:4931 Rx 1 0x080 s 0 
13:59:20:5141 Rx 1 0x080 s 0 
13:59:20:5341 Rx 1 0x080 s 0 
13:59:20:5531 Rx 1 0x080 s 0 
13:59:20:5731 Rx 1 0x080 s 0 
13:59:20:5931 Rx 1 0x080 s 0 
13:59:20:6141 Rx 1 0x080 s 0 
13:59:20:6331 Rx 1 0x080 s 0 
13:59:20:6541 Rx 1 0x080 s 0 
13:59:20:6741 Rx 1 0x080 s 0 
13:59:20:6941 Rx 1 0x080 s 0 
13:59:20:7141 Rx 1 0x080 s 0 
13:59:20:7341 Rx 1 0x080 s 0 
13:59:20:7541 Rx 1 0x080 s 0 
13:59:20:7741 Rx 1 0x080 s 0 
13:59:20:7941 Rx 1 0x080 s 0 
13:59:20:8141 Rx 1 0x080 s 0 
13:59:20:8341 Rx 1 0x080 s 0 
13:59:20:8541 Rx 1 0x080 s 0 
13:59:20:8741 Rx 1 0x080 s 0 
13:59:20:9041 Rx 1 0x080 s 0 
13:59:20:9241 Rx 1 0x080 s 0 
13:59:20:9441 Rx 1 0x080 s 0 
13:59:20:9641 Rx 1 0x080 s 0 
13:59:20:9851 Rx 1 0x080 s 0 
13:59:21:0051 Rx 1 0x080 s 0 
13:59:21:0261 Rx 1 0x080 s 0 
13:59:21:0451 Rx 1 0x080 s 0 
13:59:21:0651 Rx 1 0x080 s 0 
13:59:21:0841 Rx 1 0x080 s 0 
13:59:21:1041 Rx 1 0x080 s 0 
13:59:21:1251 Rx 1 0x080 s 0 
13:59:21:1451 Rx 1 0x080 s 0 
13:59:21:1641 Rx 1 0x080 s 0 
13:59:21:1851 Rx 1 0x080 s 0 
13:59:21:2051 Rx 1 0x080 s 0 
13:59:21:2251 Rx 1 0x080 s 0 
13:59:21:2451 Rx 1 0x080 s 0 
13:59:21:2651 Rx 1 0x080 s 0 
13:59:21:2851 Rx 1 0x080 s 0 
13:59:21:3041 Rx 1 0x080 s 0 
13:59:21:3251 Rx 1 0x080 s 0 
13:59:21:3451 Rx 1 0x080 s 0 
13:59:21:3641 Rx 1 0x080 s 0 
13:59:21:3851 Rx 1 0x080 s 0 
13:59:21:4051 Rx 1 0x080 s 0 
13:59:21:4251 Rx 1 0x080 s 0 
13:59:21:4451 Rx 1 0x080 s 0 
13:59:21:4481 Rx 1 0x608 s 8 80 00 10 00 00 00 04 05 
13:59:21:4551 Rx 1 0x608 s 8 40 00 10 00 00 00 00 00 
13:59:21:4651 Rx 1 0x080 s 0 
13:59:21:4851 Rx 1 0x080 s 0 
13:59:21:5051 Rx 1 0x080 s 0 
13:59:21:5251 Rx 1 0x080 s 0 
13:59:21:5451 Rx 1 0x080 s 0 
13:59:21:5651 Rx 1 0x080 s 0 
13:59:21:5851 Rx 1 0x080 s 0 
13:59:21:6051 Rx 1 0x080 s 0 
13:59:21:6251 Rx 1 0x080 s 0 
13:59:21:6451 Rx 1 0x080 s 0 
13:59:21:6651 Rx 1 0x080 s 0 
13:59:21:6861 Rx 1 0x080 s 0 
13:59:21:7161 Rx 1 0x080 s 0 
13:59:21:7361 Rx 1 0x080 s 0 
13:59:21:7561 Rx 1 0x080 s 0 
13:59:21:7761 Rx 1 0x080 s 0 
13:59:21:7971 Rx 1 0x080 s 0 
13:59:21:8171 Rx 1 0x080 s 0 
13:59:21:8361 Rx 1 0x080 s 0 
13:59:21:8561 Rx 1 0x080 s 0 
13:59:21:8761 Rx 1 0x080 s 0 
13:59:21:8961 Rx 1 0x080 s 0 
13:59:21:9171 Rx 1 0x080 s 0 
13:59:21:9371 Rx 1 0x080 s 0 
13:59:21:9561 Rx 1 0x080 s 0 
13:59:21:9761 Rx 1 0x080 s 0 
13:59:21:9971 Rx 1 0x080 s 0 
13:59:22:0161 Rx 1 0x080 s 0 
13:59:22:0371 Rx 1 0x080 s 0 
13:59:22:0561 Rx 1 0x080 s 0 
13:59:22:0761 Rx 1 0x080 s 0 
13:59:22:0961 Rx 1 0x080 s 0 
13:59:22:1161 Rx 1 0x080 s 0 
13:59:22:1361 Rx 1 0x080 s 0 
13:59:22:1561 Rx 1 0x080 s 0 
13:59:22:1771 Rx 1 0x080 s 0 
13:59:22:1961 Rx 1 0x080 s 0 
13:59:22:2161 Rx 1 0x080 s 0 
13:59:22:2371 Rx 1 0x080 s 0 
13:59:22:2571 Rx 1 0x080 s 0 
13:59:22:2771 Rx 1 0x080 s 0 
13:59:22:2971 Rx 1 0x080 s 0 
13:59:22:3171 Rx 1 0x080 s 0 
13:59:22:3381 Rx 1 0x080 s 0 
13:59:22:3571 Rx 1 0x080 s 0 
13:59:22:3771 Rx 1 0x080 s 0 
13:59:22:3971 Rx 1 0x080 s 0 
13:59:22:4171 Rx 1 0x080 s 0 
13:59:22:4371 Rx 1 0x080 s 0 
13:59:22:4571 Rx 1 0x080 s 0 
13:59:22:4591 Rx 1 0x608 s 8 80 00 10 00 00 00 04 05 
13:59:22:4671 Rx 1 0x608 s 8 40 00 10 00 00 00 00 00 
13:59:22:4771 Rx 1 0x080 s 0 
13:59:22:4971 Rx 1 0x080 s 0 
13:59:22:5171 Rx 1 0x080 s 0 
13:59:22:5371 Rx 1 0x080 s 0 
13:59:22:5571 Rx 1 0x080 s 0 
13:59:22:5781 Rx 1 0x080 s 0 
13:59:22:5971 Rx 1 0x080 s 0 
13:59:22:6171 Rx 1 0x080 s 0 
13:59:22:6381 Rx 1 0x080 s 0 
13:59:22:6571 Rx 1 0x080 s 0 
13:59:22:6771 Rx 1 0x080 s 0 
13:59:22:6971 Rx 1 0x080 s 0 
13:59:22:7171 Rx 1 0x080 s 0 
13:59:22:7381 Rx 1 0x080 s 0 
13:59:22:7571 Rx 1 0x080 s 0 
13:59:22:7771 Rx 1 0x080 s 0 
13:59:22:7981 Rx 1 0x080 s 0 
13:59:22:8171 Rx 1 0x080 s 0 
13:59:22:8371 Rx 1 0x080 s 0 
13:59:22:8571 Rx 1 0x080 s 0 
13:59:22:8771 Rx 1 0x080 s 0 
13:59:22:8971 Rx 1 0x080 s 0 
13:59:22:9181 Rx 1 0x080 s 0 
13:59:22:9381 Rx 1 0x080 s 0 
13:59:22:9581 Rx 1 0x080 s 0 
13:59:22:9781 Rx 1 0x080 s 0 
13:59:22:9981 Rx 1 0x080 s 0 
13:59:23:0181 Rx 1 0x080 s 0 
13:59:23:0391 Rx 1 0x080 s 0 
13:59:23:0581 Rx 1 0x080 s 0 
13:59:23:0781 Rx 1 0x080 s 0 
13:59:23:0991 Rx 1 0x080 s 0 
13:59:23:1191 Rx 1 0x080 s 0 
13:59:23:1401 Rx 1 0x080 s 0 
13:59:23:1591 Rx 1 0x080 s 0 
13:59:23:1791 Rx 1 0x080 s 0 
13:59:23:2001 Rx 1 0x080 s 0 
13:59:23:2191 Rx 1 0x080 s 0 
13:59:23:2391 Rx 1 0x080 s 0 
13:59:23:2601 Rx 1 0x080 s 0 
13:59:23:2791 Rx 1 0x080 s 0 
13:59:23:2991 Rx 1 0x080 s 0 
13:59:23:3201 Rx 1 0x080 s 0 
13:59:23:3391 Rx 1 0x080 s 0 
13:59:23:3591 Rx 1 0x080 s 0 
13:59:23:3801 Rx 1 0x080 s 0 
13:59:23:3991 Rx 1 0x080 s 0 
13:59:23:4191 Rx 1 0x080 s 0 
13:59:23:4401 Rx 1 0x080 s 0 
13:59:23:4601 Rx 1 0x080 s 0 
13:59:23:4711 Rx 1 0x608 s 8 80 00 10 00 00 00 04 05 
13:59:23:4801 Rx 1 0x080 s 0 
13:59:23:4811 Rx 1 0x608 s 8 40 00 10 00 00 00 00 00 
13:59:23:5011 Rx 1 0x080 s 0 
13:59:23:5211 Rx 1 0x080 s 0 
13:59:23:5411 Rx 1 0x080 s 0 
13:59:23:5611 Rx 1 0x080 s 0 
13:59:23:5811 Rx 1 0x080 s 0 
13:59:23:6011 Rx 1 0x080 s 0 
13:59:23:6211 Rx 1 0x080 s 0 
13:59:23:6411 Rx 1 0x080 s 0 
13:59:23:6611 Rx 1 0x080 s 0 
13:59:23:6811 Rx 1 0x080 s 0 
13:59:23:7011 Rx 1 0x080 s 0 
13:59:23:7211 Rx 1 0x080 s 0 
13:59:23:7411 Rx 1 0x080 s 0 
13:59:23:7611 Rx 1 0x080 s 0 
13:59:23:7811 Rx 1 0x080 s 0 
13:59:23:8011 Rx 1 0x080 s 0 
13:59:23:8211 Rx 1 0x080 s 0 
13:59:23:8411 Rx 1 0x080 s 0 
13:59:23:8621 Rx 1 0x080 s 0 
13:59:23:8821 Rx 1 0x080 s 0 
13:59:23:9021 Rx 1 0x080 s 0 
13:59:23:9221 Rx 1 0x080 s 0 
13:59:23:9421 Rx 1 0x080 s 0 
13:59:23:9621 Rx 1 0x080 s 0 
13:59:23:9821 Rx 1 0x080 s 0 
13:59:24:0011 Rx 1 0x080 s 0 
13:59:24:0211 Rx 1 0x080 s 0 
13:59:24:0411 Rx 1 0x080 s 0 
13:59:24:0611 Rx 1 0x080 s 0 
13:59:24:0811 Rx 1 0x080 s 0 
13:59:24:1011 Rx 1 0x080 s 0 
13:59:24:1211 Rx 1 0x080 s 0 
13:59:24:1411 Rx 1 0x080 s 0 
13:59:24:1621 Rx 1 0x080 s 0 
13:59:24:1821 Rx 1 0x080 s 0 
13:59:24:2011 Rx 1 0x080 s 0 
13:59:24:2221 Rx 1 0x080 s 0 
13:59:24:2421 Rx 1 0x080 s 0 
13:59:24:2621 Rx 1 0x080 s 0 
13:59:24:2821 Rx 1 0x080 s 0 
13:59:24:3021 Rx 1 0x080 s 0 
13:59:24:3221 Rx 1 0x080 s 0 
13:59:24:3421 Rx 1 0x080 s 0 
13:59:24:3621 Rx 1 0x080 s 0 
13:59:24:3821 Rx 1 0x080 s 0 
13:59:24:4021 Rx 1 0x080 s 0 
13:59:24:4221 Rx 1 0x080 s 0 
13:59:24:4421 Rx 1 0x080 s 0 
13:59:24:4621 Rx 1 0x080 s 0 
13:59:24:4821 Rx 1 0x080 s 0 
13:59:24:4851 Rx 1 0x608 s 8 80 00 10 00 00 00 04 05 
13:59:24:4921 Rx 1 0x608 s 8 40 00 10 00 00 00 00 00 
13:59:24:5021 Rx 1 0x080 s 0 
13:59:24:5221 Rx 1 0x080 s 0 
13:59:24:5421 Rx 1 0x080 s 0 
13:59:24:5621 Rx 1 0x080 s 0 
13:59:24:5821 Rx 1 0x080 s 0 
13:59:24:6021 Rx 1 0x080 s 0 
13:59:24:6231 Rx 1 0x080 s 0 
13:59:24:6431 Rx 1 0x080 s 0 
13:59:24:6631 Rx 1 0x080 s 0 
13:59:24:6831 Rx 1 0x080 s 0 
13:59:24:7041 Rx 1 0x080 s 0 
13:59:24:7231 Rx 1 0x080 s 0 
13:59:24:7431 Rx 1 0x080 s 0 
13:59:24:7641 Rx 1 0x080 s 0 
13:59:24:7841 Rx 1 0x080 s 0 
13:59:24:8051 Rx 1 0x080 s 0 
13:59:24:8241 Rx 1 0x080 s 0 
13:59:24:8441 Rx 1 0x080 s 0 
13:59:24:8631 Rx 1 0x080 s 0 
13:59:24:8841 Rx 1 0x080 s 0 
13:59:24:9041 Rx 1 0x080 s 0 
13:59:24:9231 Rx 1 0x080 s 0 
13:59:24:9441 Rx 1 0x080 s 0 
13:59:24:9641 Rx 1 0x080 s 0 
13:59:24:9851 Rx 1 0x080 s 0 
13:59:25:0041 Rx 1 0x080 s 0 
13:59:25:0241 Rx 1 0x080 s 0 
13:59:25:0441 Rx 1 0x080 s 0 
13:59:25:0641 Rx 1 0x080 s 0 
13:59:25:0841 Rx 1 0x080 s 0 
13:59:25:1051 Rx 1 0x080 s 0 
13:59:25:1251 Rx 1 0x080 s 0 
13:59:25:1441 Rx 1 0x080 s 0 
13:59:25:1651 Rx 1 0x080 s 0 
13:59:25:1841 Rx 1 0x080 s 0 
13:59:25:2051 Rx 1 0x080 s 0 
13:59:25:2251 Rx 1 0x080 s 0 
13:59:25:2451 Rx 1 0x080 s 0 
13:59:25:2641 Rx 1 0x080 s 0 
13:59:25:2861 Rx 1 0x080 s 0 
13:59:25:3061 Rx 1 0x080 s 0 
13:59:25:3251 Rx 1 0x080 s 0 
13:59:25:3461 Rx 1 0x080 s 0 
13:59:25:3661 Rx 1 0x080 s 0 
13:59:25:3861 Rx 1 0x080 s 0 
13:59:25:4051 Rx 1 0x080 s 0 
13:59:25:4261 Rx 1 0x080 s 0 
13:59:25:4451 Rx 1 0x080 s 0 
13:59:25:4661 Rx 1 0x080 s 0 
13:59:25:4861 Rx 1 0x080 s 0 
13:59:25:4971 Rx 1 0x608 s 8 80 00 10 00 00 00 04 05 
13:59:25:5051 Rx 1 0x080 s 0 
13:59:25:5061 Rx 1 0x608 s 8 40 00 10 00 00 00 00 00 
13:59:25:5251 Rx 1 0x080 s 0 
13:59:25:5461 Rx 1 0x080 s 0 
13:59:25:5661 Rx 1 0x080 s 0 
13:59:25:5861 Rx 1 0x080 s 0 
13:59:25:6061 Rx 1 0x080 s 0 
13:59:25:6261 Rx 1 0x080 s 0 
13:59:25:6461 Rx 1 0x080 s 0 
13:59:25:6661 Rx 1 0x080 s 0 
13:59:25:6851 Rx 1 0x080 s 0 
13:59:25:7061 Rx 1 0x080 s 0 
13:59:25:7261 Rx 1 0x080 s 0 
13:59:25:7461 Rx 1 0x080 s 0 
13:59:25:7661 Rx 1 0x080 s 0 
13:59:25:7861 Rx 1 0x080 s 0 
13:59:25:8061 Rx 1 0x080 s 0 
13:59:25:8261 Rx 1 0x080 s 0 
13:59:25:8461 Rx 1 0x080 s 0 
13:59:25:8651 Rx 1 0x080 s 0 
13:59:25:8861 Rx 1 0x080 s 0 
13:59:25:9061 Rx 1 0x080 s 0 
13:59:25:9251 Rx 1 0x080 s 0 
13:59:25:9461 Rx 1 0x080 s 0 
13:59:25:9661 Rx 1 0x080 s 0 
13:59:25:9861 Rx 1 0x080 s 0 
13:59:26:0051 Rx 1 0x080 s 0 
13:59:26:0261 Rx 1 0x080 s 0 
13:59:26:0461 Rx 1 0x080 s 0 
13:59:26:0661 Rx 1 0x080 s 0 
13:59:26:0861 Rx 1 0x080 s 0 
13:59:26:1071 Rx 1 0x080 s 0 
13:59:26:1261 Rx 1 0x080 s 0 
13:59:26:1471 Rx 1 0x080 s 0 
13:59:26:1661 Rx 1 0x080 s 0 
13:59:26:1861 Rx 1 0x080 s 0 
13:59:26:2061 Rx 1 0x080 s 0 
13:59:26:2271 Rx 1 0x080 s 0 
13:59:26:2461 Rx 1 0x080 s 0 
13:59:26:2671 Rx 1 0x080 s 0 
13:59:26:2871 Rx 1 0x080 s 0 
13:59:26:3071 Rx 1 0x080 s 0 
13:59:26:3271 Rx 1 0x080 s 0 
13:59:26:3471 Rx 1 0x080 s 0 
13:59:26:3671 Rx 1 0x080 s 0 
13:59:26:3871 Rx 1 0x080 s 0 
13:59:26:4071 Rx 1 0x080 s 0 
13:59:26:4271 Rx 1 0x080 s 0 
13:59:26:4471 Rx 1 0x080 s 0 
13:59:26:4671 Rx 1 0x080 s 0 
13:59:26:4881 Rx 1 0x080 s 0 
13:59:26:5081 Rx 1 0x080 s 0 
13:59:26:5101 Rx 1 0x608 s 8 80 00 10 00 00 00 04 05 
13:59:26:5181 Rx 1 0x608 s 8 40 00 10 00 00 00 00 00 
13:59:26:5271 Rx 1 0x080 s 0 
13:59:26:5471 Rx 1 0x080 s 0 
13:59:26:5681 Rx 1 0x080 s 0 
13:59:26:5871 Rx 1 0x080 s 0 
13:59:26:6071 Rx 1 0x080 s 0 
13:59:26:6281 Rx 1 0x080 s 0 
13:59:26:6481 Rx 1 0x080 s 0 
13:59:26:6671 Rx 1 0x080 s 0 
13:59:26:6881 Rx 1 0x080 s 0 
13:59:26:7071 Rx 1 0x080 s 0 
13:59:26:7271 Rx 1 0x080 s 0 
13:59:26:7471 Rx 1 0x080 s 0 
13:59:26:7671 Rx 1 0x080 s 0 
13:59:26:7881 Rx 1 0x080 s 0 
13:59:26:8081 Rx 1 0x080 s 0 
13:59:26:8271 Rx 1 0x080 s 0 
13:59:26:8471 Rx 1 0x080 s 0 
13:59:26:8671 Rx 1 0x080 s 0 
13:59:26:8871 Rx 1 0x080 s 0 
13:59:26:9071 Rx 1 0x080 s 0 
13:59:26:9271 Rx 1 0x080 s 0 
13:59:26:9471 Rx 1 0x080 s 0 
13:59:26:9681 Rx 1 0x080 s 0 
13:59:26:9881 Rx 1 0x080 s 0 
13:59:27:0081 Rx 1 0x080 s 0 
13:59:27:0281 Rx 1 0x080 s 0 
13:59:27:0481 Rx 1 0x080 s 0 
13:59:27:0681 Rx 1 0x080 s 0 
13:59:27:0881 Rx 1 0x080 s 0 
13:59:27:1081 Rx 1 0x080 s 0 
13:59:27:1271 Rx 1 0x080 s 0 
13:59:27:1481 Rx 1 0x080 s 0 
13:59:27:1681 Rx 1 0x080 s 0 
13:59:27:1881 Rx 1 0x080 s 0 
13:59:27:2081 Rx 1 0x080 s 0 
13:59:27:2281 Rx 1 0x080 s 0 
13:59:27:2481 Rx 1 0x080 s 0 
13:59:27:2681 Rx 1 0x080 s 0 
13:59:27:2881 Rx 1 0x080 s 0 
13:59:27:3081 Rx 1 0x080 s 0 
13:59:27:3281 Rx 1 0x080 s 0 
13:59:27:3481 Rx 1 0x080 s 0 
13:59:27:3681 Rx 1 0x080 s 0 
13:59:27:3881 Rx 1 0x080 s 0 
13:59:27:4091 Rx 1 0x080 s 0 
13:59:27:4281 Rx 1 0x080 s 0 
13:59:27:4481 Rx 1 0x080 s 0 
13:59:27:4691 Rx 1 0x080 s 0 
13:59:27:4881 Rx 1 0x080 s 0 
13:59:27:5081 Rx 1 0x080 s 0 
13:59:27:5191 Rx 1 0x608 s 8 80 00 10 00 00 00 04 05 
13:59:27:5281 Rx 1 0x080 s 0 
13:59:27:5311 Rx 1 0x608 s 8 40 00 10 00 00 00 00 00 
13:59:27:5481 Rx 1 0x080 s 0 
13:59:27:5681 Rx 1 0x080 s 0 
13:59:27:5881 Rx 1 0x080 s 0 
13:59:27:6091 Rx 1 0x080 s 0 
13:59:27:6281 Rx 1 0x080 s 0 
13:59:27:6481 Rx 1 0x080 s 0 
13:59:27:6681 Rx 1 0x080 s 0 
13:59:27:6891 Rx 1 0x080 s 0 
13:59:27:7081 Rx 1 0x080 s 0 
13:59:27:7291 Rx 1 0x080 s 0 
13:59:27:7601 Rx 1 0x080 s 0 
13:59:27:7801 Rx 1 0x080 s 0 
13:59:27:8001 Rx 1 0x080 s 0 
13:59:27:8201 Rx 1 0x080 s 0 
13:59:27:8401 Rx 1 0x080 s 0 
13:59:27:8601 Rx 1 0x080 s 0 
13:59:27:8801 Rx 1 0x080 s 0 
13:59:27:9001 Rx 1 0x080 s 0 
13:59:27:9201 Rx 1 0x080 s 0 
13:59:27:9411 Rx 1 0x080 s 0 
13:59:27:9601 Rx 1 0x080 s 0 
13:59:27:9811 Rx 1 0x080 s 0 
13:59:28:0011 Rx 1 0x080 s 0 
13:59:28:0201 Rx 1 0x080 s 0 
13:59:28:0291 Rx 1 0x708 s 1 00 
13:59:28:0411 Rx 1 0x080 s 0 
13:59:28:0451 Rx 1 0x608 s 8 80 00 10 00 00 00 04 05 
13:59:28:0461 Rx 1 0x608 s 8 40 00 10 00 00 00 00 00 
13:59:28:0471 Rx 1 0x588 s 8 43 00 10 00 92 01 06 00 
13:59:28:0521 Rx 1 0x608 s 8 40 18 10 01 00 00 00 00 
13:59:28:0531 Rx 1 0x588 s 8 43 18 10 01 A3 01 00 00 
13:59:28:0611 Rx 1 0x080 s 0 
13:59:28:0711 Rx 1 0x608 s 8 23 05 10 00 80 00 00 00 
13:59:28:0721 Rx 1 0x588 s 8 60 05 10 00 00 00 00 00 
13:59:28:0811 Rx 1 0x080 s 0 
13:59:28:0841 Rx 1 0x608 s 8 23 06 10 00 20 4E 00 00 
13:59:28:0851 Rx 1 0x588 s 8 60 06 10 00 00 00 00 00 
13:59:28:0921 Rx 1 0x608 s 8 2B 0C 10 00 64 00 00 00 
13:59:28:0931 Rx 1 0x588 s 8 60 0C 10 00 00 00 00 00 
13:59:28:1011 Rx 1 0x080 s 0 
13:59:28:1041 Rx 1 0x608 s 8 2F 0D 10 00 02 00 00 00 
13:59:28:1051 Rx 1 0x588 s 8 60 0D 10 00 00 00 00 00 
13:59:28:1121 Rx 1 0x608 s 8 23 14 10 00 88 00 00 80 
13:59:28:1131 Rx 1 0x588 s 8 60 14 10 00 00 00 00 00 
13:59:28:1131 Rx 1 0x708 s 1 7F 
13:59:28:1211 Rx 1 0x080 s 0 
13:59:28:1251 Rx 1 0x608 s 8 2B 17 10 00 00 00 00 00 
13:59:28:1261 Rx 1 0x588 s 8 60 17 10 00 00 00 00 00 
13:59:28:1311 Rx 1 0x608 s 8 23 00 14 01 08 02 00 80 
13:59:28:1321 Rx 1 0x588 s 8 60 00 14 01 00 00 00 00 
13:59:28:1411 Rx 1 0x080 s 0 
13:59:28:1441 Rx 1 0x608 s 8 2F 00 14 02 FF 00 00 00 
13:59:28:1451 Rx 1 0x588 s 8 60 00 14 02 00 00 00 00 
13:59:28:1521 Rx 1 0x608 s 8 2F 00 16 00 00 00 00 00 
13:59:28:1531 Rx 1 0x588 s 8 60 00 16 00 00 00 00 00 
13:59:28:1601 Rx 1 0x080 s 0 
13:59:28:1641 Rx 1 0x608 s 8 23 00 16 01 10 00 40 60 
13:59:28:1651 Rx 1 0x588 s 8 60 00 16 01 00 00 00 00 
13:59:28:1711 Rx 1 0x608 s 8 23 00 16 02 20 00 FF 60 
13:59:28:1721 Rx 1 0x588 s 8 60 00 16 02 00 00 00 00 
13:59:28:1811 Rx 1 0x080 s 0 
13:59:28:1841 Rx 1 0x608 s 8 2F 00 16 00 02 00 00 00 
13:59:28:1851 Rx 1 0x588 s 8 60 00 16 00 00 00 00 00 
13:59:28:1921 Rx 1 0x608 s 8 23 00 14 01 08 02 00 00 
13:59:28:1931 Rx 1 0x588 s 8 60 00 14 01 00 00 00 00 
13:59:28:2011 Rx 1 0x080 s 0 
13:59:28:2041 Rx 1 0x608 s 8 23 01 14 01 08 03 00 80 
13:59:28:2051 Rx 1 0x588 s 8 60 01 14 01 00 00 00 00 
13:59:28:2121 Rx 1 0x608 s 8 2F 01 14 02 64 00 00 00 
13:59:28:2131 Rx 1 0x588 s 8 60 01 14 02 00 00 00 00 
13:59:28:2141 Rx 1 0x708 s 1 FF 
13:59:28:2211 Rx 1 0x080 s 0 
13:59:28:2251 Rx 1 0x608 s 8 2F 01 16 00 00 00 00 00 
13:59:28:2261 Rx 1 0x588 s 8 60 01 16 00 00 00 00 00 
13:59:28:2321 Rx 1 0x608 s 8 23 01 16 01 20 00 7A 60 
13:59:28:2331 Rx 1 0x588 s 8 60 01 16 01 00 00 00 00 
13:59:28:2411 Rx 1 0x080 s 0 
13:59:28:2441 Rx 1 0x608 s 8 2F 01 16 00 01 00 00 00 
13:59:28:2451 Rx 1 0x588 s 8 60 01 16 00 00 00 00 00 
13:59:28:2521 Rx 1 0x608 s 8 23 01 14 01 08 03 00 00 
13:59:28:2521 Rx 1 0x588 s 8 60 01 14 01 00 00 00 00 
13:59:28:2621 Rx 1 0x080 s 0 
13:59:28:2651 Rx 1 0x608 s 8 23 00 18 01 88 01 00 80 
13:59:28:2661 Rx 1 0x588 s 8 60 00 18 01 00 00 00 00 
13:59:28:2721 Rx 1 0x608 s 8 2F 00 18 02 FF 00 00 00 
13:59:28:2731 Rx 1 0x588 s 8 60 00 18 02 00 00 00 00 
13:59:28:2811 Rx 1 0x080 s 0 
13:59:28:2851 Rx 1 0x608 s 8 2B 00 18 03 32 00 00 00 
13:59:28:2861 Rx 1 0x588 s 8 60 00 18 03 00 00 00 00 
13:59:28:2921 Rx 1 0x608 s 8 2B 00 18 05 00 00 00 00 
13:59:28:2931 Rx 1 0x588 s 8 60 00 18 05 00 00 00 00 
13:59:28:3011 Rx 1 0x080 s 0 
13:59:28:3051 Rx 1 0x608 s 8 2F 00 1A 00 00 00 00 00 
13:59:28:3061 Rx 1 0x588 s 8 60 00 1A 00 00 00 00 00 
13:59:28:3131 Rx 1 0x608 s 8 23 00 1A 01 10 00 41 60 
13:59:28:3141 Rx 1 0x588 s 8 60 00 1A 01 00 00 00 00 
13:59:28:3141 Rx 1 0x708 s 1 7F 
13:59:28:3221 Rx 1 0x080 s 0 
13:59:28:3251 Rx 1 0x608 s 8 23 00 1A 02 08 00 02 21 
13:59:28:3261 Rx 1 0x588 s 8 60 00 1A 02 00 00 00 00 
13:59:28:3331 Rx 1 0x608 s 8 23 00 1A 03 20 00 6C 60 
13:59:28:3341 Rx 1 0x588 s 8 60 00 1A 03 00 00 00 00 
13:59:28:3411 Rx 1 0x080 s 0 
13:59:28:3451 Rx 1 0x608 s 8 2F 00 1A 00 03 00 00 00 
13:59:28:3461 Rx 1 0x588 s 8 60 00 1A 00 00 00 00 00 
13:59:28:3521 Rx 1 0x608 s 8 23 00 18 01 88 01 00 00 
13:59:28:3531 Rx 1 0x588 s 8 60 00 18 01 00 00 00 00 
13:59:28:3611 Rx 1 0x080 s 0 
13:59:28:3651 Rx 1 0x608 s 8 23 01 18 01 88 02 00 80 
13:59:28:3661 Rx 1 0x588 s 8 60 01 18 01 00 00 00 00 
13:59:28:3721 Rx 1 0x608 s 8 2F 01 18 02 14 00 00 00 
13:59:28:3731 Rx 1 0x588 s 8 60 01 18 02 00 00 00 00 
13:59:28:3811 Rx 1 0x080 s 0 
13:59:28:3851 Rx 1 0x608 s 8 2B 01 18 03 2C 01 00 00 
13:59:28:3861 Rx 1 0x588 s 8 60 01 18 03 00 00 00 00 
13:59:28:3921 Rx 1 0x608 s 8 2B 01 18 05 00 00 00 00 
13:59:28:3931 Rx 1 0x588 s 8 60 01 18 05 00 00 00 00 
13:59:28:4011 Rx 1 0x080 s 0 
13:59:28:4051 Rx 1 0x608 s 8 2F 01 1A 00 00 00 00 00 
13:59:28:4061 Rx 1 0x588 s 8 60 01 1A 00 00 00 00 00 
13:59:28:4131 Rx 1 0x608 s 8 23 01 1A 01 10 00 00 20 
13:59:28:4131 Rx 1 0x588 s 8 60 01 1A 01 00 00 00 00 
13:59:28:4141 Rx 1 0x708 s 1 FF 
13:59:28:4211 Rx 1 0x080 s 0 
13:59:28:4261 Rx 1 0x608 s 8 23 01 1A 02 10 00 02 20 
13:59:28:4271 Rx 1 0x588 s 8 60 01 1A 02 00 00 00 00 
13:59:28:4321 Rx 1 0x608 s 8 23 01 1A 03 10 00 09 20 
13:59:28:4331 Rx 1 0x588 s 8 60 01 1A 03 00 00 00 00 
13:59:28:4411 Rx 1 0x080 s 0 
13:59:28:4451 Rx 1 0x608 s 8 23 01 1A 04 10 00 58 20 
13:59:28:4461 Rx 1 0x588 s 8 60 01 1A 04 00 00 00 00 
13:59:28:4521 Rx 1 0x608 s 8 2F 01 1A 00 04 00 00 00 
13:59:28:4531 Rx 1 0x588 s 8 60 01 1A 00 00 00 00 00 
13:59:28:4611 Rx 1 0x080 s 0 
13:59:28:4651 Rx 1 0x608 s 8 23 01 18 01 88 02 00 00 
13:59:28:4661 Rx 1 0x588 s 8 60 01 18 01 00 00 00 00 
13:59:28:4721 Rx 1 0x608 s 8 23 02 18 01 88 03 00 80 
13:59:28:4731 Rx 1 0x588 s 8 60 02 18 01 00 00 00 00 
13:59:28:4811 Rx 1 0x080 s 0 
13:59:28:4851 Rx 1 0x608 s 8 2F 02 18 02 14 00 00 00 
13:59:28:4861 Rx 1 0x588 s 8 60 02 18 02 00 00 00 00 
13:59:28:4921 Rx 1 0x608 s 8 2B 02 18 03 2C 01 00 00 
13:59:28:4931 Rx 1 0x588 s 8 60 02 18 03 00 00 00 00 
13:59:28:5011 Rx 1 0x080 s 0 
13:59:28:5041 Rx 1 0x608 s 8 2B 02 18 05 00 00 00 00 
13:59:28:5051 Rx 1 0x588 s 8 60 02 18 05 00 00 00 00 
13:59:28:5131 Rx 1 0x608 s 8 2F 02 1A 00 00 00 00 00 
13:59:28:5131 Rx 1 0x588 s 8 60 02 1A 00 00 00 00 00 
13:59:28:5141 Rx 1 0x708 s 1 7F 
13:59:28:5211 Rx 1 0x080 s 0 
13:59:28:5251 Rx 1 0x608 s 8 23 02 1A 01 20 00 64 60 
13:59:28:5261 Rx 1 0x588 s 8 60 02 1A 01 00 00 00 00 
13:59:28:5321 Rx 1 0x608 s 8 2F 02 1A 00 01 00 00 00 
13:59:28:5331 Rx 1 0x588 s 8 60 02 1A 00 00 00 00 00 
13:59:28:5411 Rx 1 0x080 s 0 
13:59:28:5441 Rx 1 0x608 s 8 23 02 18 01 88 03 00 00 
13:59:28:5451 Rx 1 0x588 s 8 60 02 18 01 00 00 00 00 
13:59:28:5521 Rx 1 0x608 s 8 2F 60 60 00 03 00 00 00 
13:59:28:5531 Rx 1 0x588 s 8 60 60 60 00 00 00 00 00 
13:59:28:5611 Rx 1 0x080 s 0 
13:59:28:5651 Rx 1 0x608 s 8 23 83 60 00 20 BF 02 00 
13:59:28:5661 Rx 1 0x588 s 8 60 83 60 00 00 00 00 00 
13:59:28:5721 Rx 1 0x608 s 8 2B 07 60 00 02 00 00 00 
13:59:28:5731 Rx 1 0x588 s 8 60 07 60 00 00 00 00 00 
13:59:28:5811 Rx 1 0x080 s 0 
13:59:28:5841 Rx 1 0x608 s 8 23 06 10 00 40 9C 00 00 
13:59:28:5851 Rx 1 0x588 s 8 60 06 10 00 00 00 00 00 
13:59:28:5921 Rx 1 0x608 s 8 2B 0C 10 00 64 00 00 00 
13:59:28:5931 Rx 1 0x588 s 8 60 0C 10 00 00 00 00 00 
13:59:28:6011 Rx 1 0x080 s 0 
13:59:28:6041 Rx 1 0x608 s 8 2F 0D 10 00 02 00 00 00 
13:59:28:6051 Rx 1 0x588 s 8 60 0D 10 00 00 00 00 00 
13:59:28:6131 Rx 1 0x608 s 8 2B 5E 60 00 02 00 00 00 
13:59:28:6141 Rx 1 0x588 s 8 60 5E 60 00 00 00 00 00 
13:59:28:6141 Rx 1 0x708 s 1 FF 
13:59:28:6211 Rx 1 0x080 s 0 
13:59:28:6251 Rx 1 0x608 s 8 23 64 20 00 84 00 03 03 
13:59:28:6261 Rx 1 0x588 s 8 60 64 20 00 00 00 00 00 
13:59:28:6311 Rx 1 0x608 s 8 23 65 20 00 B9 00 00 00 
13:59:28:6321 Rx 1 0x588 s 8 60 65 20 00 00 00 00 00 
13:59:28:6411 Rx 1 0x080 s 0 
13:59:28:6611 Rx 1 0x080 s 0 
13:59:28:6621 Rx 1 0x188 s 7 50 16 00 00 00 00 00 
13:59:28:6801 Rx 1 0x080 s 0 
13:59:28:7011 Rx 1 0x080 s 0 
13:59:28:7211 Rx 1 0x080 s 0 
13:59:28:7241 Rx 1 0x708 s 1 05 
13:59:28:7371 Rx 1 0x208 s 6 00 00 00 00 00 00 
13:59:28:7411 Rx 1 0x080 s 0 
13:59:28:7601 Rx 1 0x080 s 0 
13:59:28:7811 Rx 1 0x080 s 0 
13:59:28:8011 Rx 1 0x080 s 0 
13:59:28:8211 Rx 1 0x080 s 0 
13:59:28:8251 Rx 1 0x708 s 1 85 
13:59:28:8411 Rx 1 0x080 s 0 
13:59:28:8611 Rx 1 0x080 s 0 
13:59:28:8811 Rx 1 0x080 s 0 
13:59:28:9011 Rx 1 0x080 s 0 
13:59:28:9201 Rx 1 0x080 s 0 
13:59:28:9311 Rx 1 0x708 s 1 05 
13:59:28:9401 Rx 1 0x080 s 0 
13:59:28:9611 Rx 1 0x080 s 0 
13:59:28:9801 Rx 1 0x080 s 0 
13:59:29:0001 Rx 1 0x080 s 0 
13:59:29:0211 Rx 1 0x080 s 0 
13:59:29:0311 Rx 1 0x708 s 1 85 
13:59:29:0401 Rx 1 0x080 s 0 
13:59:29:0411 Rx 1 0x288 s 8 00 00 00 00 00 00 30 40 
13:59:29:0431 Rx 1 0x388 s 4 00 00 00 00 
13:59:29:0601 Rx 1 0x080 s 0 
13:59:29:0811 Rx 1 0x080 s 0 
13:59:29:1001 Rx 1 0x080 s 0 
13:59:29:1201 Rx 1 0x080 s 0 
13:59:29:1311 Rx 1 0x708 s 1 05 
13:59:29:1411 Rx 1 0x080 s 0 
13:59:29:1611 Rx 1 0x080 s 0 
13:59:29:1801 Rx 1 0x080 s 0 
13:59:29:2011 Rx 1 0x080 s 0 
13:59:29:2201 Rx 1 0x080 s 0 
13:59:29:2311 Rx 1 0x708 s 1 85 
13:59:29:2401 Rx 1 0x080 s 0 
13:59:29:2611 Rx 1 0x080 s 0 
13:59:29:2811 Rx 1 0x080 s 0 
13:59:29:3001 Rx 1 0x080 s 0 
13:59:29:3211 Rx 1 0x080 s 0 
13:59:29:3311 Rx 1 0x708 s 1 05 
13:59:29:3401 Rx 1 0x080 s 0 
13:59:29:3611 Rx 1 0x080 s 0 
13:59:29:3811 Rx 1 0x080 s 0 
13:59:29:4011 Rx 1 0x080 s 0 
13:59:29:4211 Rx 1 0x080 s 0 
13:59:29:4321 Rx 1 0x708 s 1 85 
13:59:29:4411 Rx 1 0x080 s 0 
13:59:29:4421 Rx 1 0x288 s 8 00 00 00 00 00 00 20 40 
13:59:29:4441 Rx 1 0x308 s 4 00 00 00 00 
13:59:29:4451 Rx 1 0x388 s 4 00 00 00 00 
13:59:29:4611 Rx 1 0x080 s 0 
13:59:29:4801 Rx 1 0x080 s 0 
13:59:29:5011 Rx 1 0x080 s 0 
13:59:29:5211 Rx 1 0x080 s 0 
13:59:29:5321 Rx 1 0x708 s 1 05 
13:59:29:5421 Rx 1 0x080 s 0 
13:59:29:5611 Rx 1 0x080 s 0 
13:59:29:5811 Rx 1 0x080 s 0 
13:59:29:6011 Rx 1 0x080 s 0 
13:59:29:6211 Rx 1 0x080 s 0 
13:59:29:6321 Rx 1 0x708 s 1 85 
13:59:29:6411 Rx 1 0x080 s 0 
13:59:29:6611 Rx 1 0x080 s 0 
13:59:29:6821 Rx 1 0x080 s 0 
13:59:29:7011 Rx 1 0x080 s 0 
13:59:29:7211 Rx 1 0x080 s 0 
13:59:29:7321 Rx 1 0x708 s 1 05 
13:59:29:7421 Rx 1 0x080 s 0 
13:59:29:7611 Rx 1 0x080 s 0 
13:59:29:7811 Rx 1 0x080 s 0 
13:59:29:8021 Rx 1 0x080 s 0 
13:59:29:8221 Rx 1 0x080 s 0 
13:59:29:8331 Rx 1 0x708 s 1 85 
13:59:29:8411 Rx 1 0x080 s 0 
13:59:29:8431 Rx 1 0x288 s 8 00 00 00 00 00 00 40 40 
13:59:29:8451 Rx 1 0x388 s 4 00 00 00 00 
13:59:29:8621 Rx 1 0x080 s 0 
13:59:29:8811 Rx 1 0x080 s 0 
13:59:29:9011 Rx 1 0x080 s 0 
13:59:29:9221 Rx 1 0x080 s 0 
13:59:29:9331 Rx 1 0x708 s 1 05 
13:59:29:9421 Rx 1 0x080 s 0 
13:59:29:9621 Rx 1 0x080 s 0 
13:59:29:9821 Rx 1 0x080 s 0 
13:59:30:0021 Rx 1 0x080 s 0 
13:59:30:0221 Rx 1 0x080 s 0 
13:59:30:0331 Rx 1 0x708 s 1 85 
13:59:30:0431 Rx 1 0x080 s 0 
13:59:30:0621 Rx 1 0x080 s 0 
13:59:30:0821 Rx 1 0x080 s 0 
13:59:30:1031 Rx 1 0x080 s 0 
13:59:30:1221 Rx 1 0x080 s 0 
13:59:30:1331 Rx 1 0x708 s 1 05 
13:59:30:1421 Rx 1 0x080 s 0 
13:59:30:1631 Rx 1 0x080 s 0 
13:59:30:1821 Rx 1 0x080 s 0 
13:59:30:2021 Rx 1 0x080 s 0 
13:59:30:2221 Rx 1 0x080 s 0 
13:59:30:2421 Rx 1 0x080 s 0 
13:59:30:2431 Rx 1 0x288 s 8 00 00 00 00 00 00 10 40 
13:59:30:2451 Rx 1 0x388 s 4 00 00 00 00 
13:59:30:2461 Rx 1 0x708 s 1 85 
13:59:30:2621 Rx 1 0x080 s 0 
13:59:30:2821 Rx 1 0x080 s 0 
13:59:30:3021 Rx 1 0x080 s 0 
13:59:30:3221 Rx 1 0x080 s 0 
13:59:30:3421 Rx 1 0x080 s 0 
13:59:30:3451 Rx 1 0x708 s 1 05 
13:59:30:3621 Rx 1 0x080 s 0 
13:59:30:3821 Rx 1 0x080 s 0 
13:59:30:4021 Rx 1 0x080 s 0 
13:59:30:4221 Rx 1 0x080 s 0 
13:59:30:4421 Rx 1 0x080 s 0 
13:59:30:4451 Rx 1 0x708 s 1 85 
13:59:30:4631 Rx 1 0x080 s 0 
13:59:30:4831 Rx 1 0x080 s 0 
13:59:30:5021 Rx 1 0x080 s 0 
13:59:30:5231 Rx 1 0x080 s 0 
13:59:30:5421 Rx 1 0x080 s 0 
13:59:30:5451 Rx 1 0x708 s 1 05 
13:59:30:5621 Rx 1 0x080 s 0 
13:59:30:5831 Rx 1 0x080 s 0 
13:59:30:6021 Rx 1 0x080 s 0 
13:59:30:6221 Rx 1 0x080 s 0 
13:59:30:6431 Rx 1 0x080 s 0 
13:59:30:6441 Rx 1 0x288 s 8 00 00 00 00 00 00 40 40 
13:59:30:6461 Rx 1 0x388 s 4 00 00 00 00 
13:59:30:6471 Rx 1 0x708 s 1 85 
13:59:30:6621 Rx 1 0x080 s 0 
13:59:30:6821 Rx 1 0x080 s 0 
13:59:30:7031 Rx 1 0x080 s 0 
13:59:30:7221 Rx 1 0x080 s 0 
13:59:30:7421 Rx 1 0x080 s 0 
13:59:30:7451 Rx 1 0x708 s 1 05 
13:59:30:7621 Rx 1 0x080 s 0 
13:59:30:7821 Rx 1 0x080 s 0 
13:59:30:8021 Rx 1 0x080 s 0 
13:59:30:8231 Rx 1 0x080 s 0 
13:59:30:8431 Rx 1 0x080 s 0 
13:59:30:8461 Rx 1 0x708 s 1 85 
13:59:30:8631 Rx 1 0x080 s 0 
13:59:30:8831 Rx 1 0x080 s 0 
13:59:30:9001 Rx 1 0x208 s 6 06 00 00 00 00 00 
13:59:30:9011 Rx 1 0x188 s 7 50 17 00 00 00 00 00 
13:59:30:9031 Rx 1 0x080 s 0 
13:59:30:9051 Rx 1 0x188 s 7 31 16 00 00 00 00 00 
13:59:30:9201 Rx 1 0x208 s 6 07 00 00 00 00 00 
13:59:30:9211 Rx 1 0x188 s 7 31 17 00 00 00 00 00 
13:59:30:9231 Rx 1 0x080 s 0 
13:59:30:9261 Rx 1 0x188 s 7 33 16 00 00 00 00 00 
13:59:30:9431 Rx 1 0x080 s 0 
13:59:30:9461 Rx 1 0x708 s 1 05 
13:59:30:9621 Rx 1 0x080 s 0 
13:59:30:9821 Rx 1 0x080 s 0 
13:59:31:0031 Rx 1 0x080 s 0 
13:59:31:0231 Rx 1 0x080 s 0 
13:59:31:0421 Rx 1 0x080 s 0 
13:59:31:0451 Rx 1 0x388 s 4 00 00 00 00 
13:59:31:0461 Rx 1 0x288 s 8 00 00 00 00 00 00 10 40 
13:59:31:0471 Rx 1 0x708 s 1 85 
13:59:31:0621 Rx 1 0x080 s 0 
13:59:31:0821 Rx 1 0x080 s 0 
13:59:31:1021 Rx 1 0x080 s 0 
13:59:31:1221 Rx 1 0x080 s 0 
13:59:31:1421 Rx 1 0x080 s 0 
13:59:31:1461 Rx 1 0x708 s 1 05 
13:59:31:1621 Rx 1 0x080 s 0 
13:59:31:1831 Rx 1 0x080 s 0 
13:59:31:2031 Rx 1 0x080 s 0 
13:59:31:2231 Rx 1 0x080 s 0 
13:59:31:2431 Rx 1 0x080 s 0 
13:59:31:2461 Rx 1 0x708 s 1 85 
13:59:31:2621 Rx 1 0x080 s 0 
13:59:31:2831 Rx 1 0x080 s 0 
13:59:31:3021 Rx 1 0x080 s 0 
13:59:31:3221 Rx 1 0x080 s 0 
13:59:31:3431 Rx 1 0x080 s 0 
13:59:31:3471 Rx 1 0x708 s 1 05 
13:59:31:3621 Rx 1 0x080 s 0 
13:59:31:3831 Rx 1 0x080 s 0 
13:59:31:4021 Rx 1 0x080 s 0 
13:59:31:4231 Rx 1 0x080 s 0 
13:59:31:4421 Rx 1 0x080 s 0 
13:59:31:4451 Rx 1 0x308 s 4 00 00 00 00 
13:59:31:4461 Rx 1 0x388 s 4 00 00 00 00 
13:59:31:4461 Rx 1 0x288 s 8 00 00 00 00 00 00 20 40 
13:59:31:4491 Rx 1 0x708 s 1 85 
13:59:31:4621 Rx 1 0x080 s 0 
13:59:31:4831 Rx 1 0x080 s 0 
13:59:31:5031 Rx 1 0x080 s 0 
13:59:31:5241 Rx 1 0x080 s 0 
13:59:31:5441 Rx 1 0x080 s 0 
13:59:31:5471 Rx 1 0x708 s 1 05 
13:59:31:5641 Rx 1 0x080 s 0 
13:59:31:5841 Rx 1 0x080 s 0 
13:59:31:6031 Rx 1 0x080 s 0 
13:59:31:6241 Rx 1 0x080 s 0 
13:59:31:6441 Rx 1 0x080 s 0 
13:59:31:6471 Rx 1 0x708 s 1 85 
13:59:31:6641 Rx 1 0x080 s 0 
13:59:31:6831 Rx 1 0x080 s 0 
13:59:31:7041 Rx 1 0x080 s 0 
13:59:31:7251 Rx 1 0x080 s 0 
13:59:31:7451 Rx 1 0x080 s 0 
13:59:31:7471 Rx 1 0x708 s 1 05 
13:59:31:7641 Rx 1 0x080 s 0 
13:59:31:7841 Rx 1 0x080 s 0 
13:59:31:8041 Rx 1 0x080 s 0 
13:59:31:8241 Rx 1 0x080 s 0 
13:59:31:8441 Rx 1 0x080 s 0 
13:59:31:8471 Rx 1 0x388 s 4 00 00 00 00 
13:59:31:8481 Rx 1 0x288 s 8 00 00 00 00 00 00 30 40 
13:59:31:8491 Rx 1 0x708 s 1 85 
13:59:31:8641 Rx 1 0x080 s 0 
13:59:31:8841 Rx 1 0x080 s 0 
13:59:31:9041 Rx 1 0x080 s 0 
13:59:31:9241 Rx 1 0x080 s 0 
13:59:31:9441 Rx 1 0x080 s 0 
13:59:31:9471 Rx 1 0x708 s 1 05 
13:59:31:9641 Rx 1 0x080 s 0 
13:59:31:9841 Rx 1 0x080 s 0 
13:59:32:0041 Rx 1 0x080 s 0 
13:59:32:0241 Rx 1 0x080 s 0 
13:59:32:0441 Rx 1 0x080 s 0 
13:59:32:0461 Rx 1 0x708 s 1 85 
13:59:32:0641 Rx 1 0x080 s 0 
13:59:32:0831 Rx 1 0x080 s 0 
13:59:32:1031 Rx 1 0x080 s 0 
13:59:32:1241 Rx 1 0x080 s 0 
13:59:32:1441 Rx 1 0x080 s 0 
13:59:32:1471 Rx 1 0x708 s 1 05 
13:59:32:1641 Rx 1 0x080 s 0 
13:59:32:1841 Rx 1 0x080 s 0 
13:59:32:2041 Rx 1 0x080 s 0 
13:59:32:2241 Rx 1 0x080 s 0 
13:59:32:2441 Rx 1 0x080 s 0 
13:59:32:2451 Rx 1 0x288 s 8 00 00 00 00 00 00 30 40 
13:59:32:2481 Rx 1 0x388 s 4 00 00 00 00 
13:59:32:2501 Rx 1 0x708 s 1 85 
13:59:32:2641 Rx 1 0x080 s 0 
13:59:32:2841 Rx 1 0x080 s 0 
13:59:32:3041 Rx 1 0x080 s 0 
13:59:32:3241 Rx 1 0x080 s 0 
13:59:32:3451 Rx 1 0x080 s 0 
13:59:32:3481 Rx 1 0x708 s 1 05 
13:59:32:3641 Rx 1 0x080 s 0 
13:59:32:3841 Rx 1 0x080 s 0 
13:59:32:4041 Rx 1 0x080 s 0 
13:59:32:4241 Rx 1 0x080 s 0 
13:59:32:4441 Rx 1 0x080 s 0 
13:59:32:4481 Rx 1 0x708 s 1 85 
13:59:32:4641 Rx 1 0x080 s 0 
13:59:32:4851 Rx 1 0x080 s 0 
13:59:32:5051 Rx 1 0x080 s 0 
13:59:32:5251 Rx 1 0x080 s 0 
13:59:32:5451 Rx 1 0x080 s 0 
13:59:32:5491 Rx 1 0x708 s 1 05 
13:59:32:5641 Rx 1 0x080 s 0 
13:59:32:5851 Rx 1 0x080 s 0 
13:59:32:6051 Rx 1 0x080 s 0 
13:59:32:6251 Rx 1 0x080 s 0 
13:59:32:6451 Rx 1 0x080 s 0 
13:59:32:6471 Rx 1 0x288 s 8 00 00 00 00 00 00 40 40 
13:59:32:6491 Rx 1 0x388 s 4 00 00 00 00 
13:59:32:6511 Rx 1 0x708 s 1 85 
13:59:32:6651 Rx 1 0x080 s 0 
13:59:32:6861 Rx 1 0x080 s 0 
13:59:32:7051 Rx 1 0x080 s 0 
13:59:32:7251 Rx 1 0x080 s 0 
13:59:32:7451 Rx 1 0x080 s 0 
13:59:32:7501 Rx 1 0x708 s 1 05 
13:59:32:7651 Rx 1 0x080 s 0 
13:59:32:7851 Rx 1 0x080 s 0 
13:59:32:8051 Rx 1 0x080 s 0 
13:59:32:8261 Rx 1 0x080 s 0 
13:59:32:8451 Rx 1 0x080 s 0 
13:59:32:8491 Rx 1 0x708 s 1 85 
13:59:32:8661 Rx 1 0x080 s 0 
13:59:32:8851 Rx 1 0x080 s 0 
13:59:32:9051 Rx 1 0x080 s 0 
13:59:32:9251 Rx 1 0x080 s 0 
13:59:32:9461 Rx 1 0x080 s 0 
13:59:32:9501 Rx 1 0x708 s 1 05 
13:59:32:9651 Rx 1 0x080 s 0 
13:59:32:9851 Rx 1 0x080 s 0 
13:59:33:0051 Rx 1 0x080 s 0 
13:59:33:0251 Rx 1 0x080 s 0 
13:59:33:0461 Rx 1 0x080 s 0 
13:59:33:0491 Rx 1 0x388 s 4 00 00 00 00 
13:59:33:0491 Rx 1 0x288 s 8 00 00 00 00 00 00 30 40 
13:59:33:0561 Rx 1 0x708 s 1 85 
13:59:33:0661 Rx 1 0x080 s 0 
13:59:33:0851 Rx 1 0x080 s 0 
13:59:33:1051 Rx 1 0x080 s 0 
13:59:33:1251 Rx 1 0x080 s 0 
13:59:33:1451 Rx 1 0x080 s 0 
13:59:33:1561 Rx 1 0x708 s 1 05 
13:59:33:1651 Rx 1 0x080 s 0 
13:59:33:1861 Rx 1 0x080 s 0 
13:59:33:2061 Rx 1 0x080 s 0 
13:59:33:2261 Rx 1 0x080 s 0 
13:59:33:2461 Rx 1 0x080 s 0 
13:59:33:2571 Rx 1 0x708 s 1 85 
13:59:33:2661 Rx 1 0x080 s 0 
13:59:33:2861 Rx 1 0x080 s 0 
13:59:33:3061 Rx 1 0x080 s 0 
13:59:33:3261 Rx 1 0x080 s 0 
13:59:33:3461 Rx 1 0x080 s 0 
13:59:33:3571 Rx 1 0x708 s 1 05 
13:59:33:3661 Rx 1 0x080 s 0 
13:59:33:3871 Rx 1 0x080 s 0 
13:59:33:4061 Rx 1 0x080 s 0 
13:59:33:4261 Rx 1 0x080 s 0 
13:59:33:4471 Rx 1 0x080 s 0 
13:59:33:4481 Rx 1 0x288 s 8 00 00 00 00 00 00 20 40 
13:59:33:4511 Rx 1 0x308 s 4 00 00 00 00 
13:59:33:4521 Rx 1 0x388 s 4 00 00 00 00 
13:59:33:4571 Rx 1 0x708 s 1 85 
13:59:33:4661 Rx 1 0x080 s 0 
13:59:33:4861 Rx 1 0x080 s 0 
13:59:33:5061 Rx 1 0x080 s 0 
13:59:33:5261 Rx 1 0x080 s 0 
13:59:33:5461 Rx 1 0x080 s 0 
13:59:33:5571 Rx 1 0x708 s 1 05 
13:59:33:5671 Rx 1 0x080 s 0 
13:59:33:5861 Rx 1 0x080 s 0 
13:59:33:6081 Rx 1 0x080 s 0 
13:59:33:6271 Rx 1 0x080 s 0 
13:59:33:6471 Rx 1 0x080 s 0 
13:59:33:6571 Rx 1 0x708 s 1 85 
13:59:33:6661 Rx 1 0x080 s 0 
13:59:33:6871 Rx 1 0x080 s 0 
13:59:33:7071 Rx 1 0x080 s 0 
13:59:33:7271 Rx 1 0x080 s 0 
13:59:33:7471 Rx 1 0x080 s 0 
13:59:33:7581 Rx 1 0x708 s 1 05 
13:59:33:7671 Rx 1 0x080 s 0 
13:59:33:7881 Rx 1 0x080 s 0 
13:59:33:8081 Rx 1 0x080 s 0 
13:59:33:8281 Rx 1 0x080 s 0 
13:59:33:8491 Rx 1 0x080 s 0 
13:59:33:8501 Rx 1 0x288 s 8 00 00 00 00 00 00 30 40 
13:59:33:8531 Rx 1 0x388 s 4 00 00 00 00 
13:59:33:8591 Rx 1 0x708 s 1 85 
13:59:33:8681 Rx 1 0x080 s 0 
13:59:33:8881 Rx 1 0x080 s 0 
13:59:33:9081 Rx 1 0x080 s 0 
13:59:33:9291 Rx 1 0x080 s 0 
13:59:33:9491 Rx 1 0x080 s 0 
13:59:33:9591 Rx 1 0x708 s 1 05 
13:59:33:9681 Rx 1 0x080 s 0 
13:59:33:9891 Rx 1 0x080 s 0 
13:59:34:0091 Rx 1 0x080 s 0 
13:59:34:0281 Rx 1 0x080 s 0 
13:59:34:0491 Rx 1 0x080 s 0 
13:59:34:0591 Rx 1 0x708 s 1 85 
13:59:34:0691 Rx 1 0x080 s 0 
13:59:34:0821 Rx 1 0x208 s 6 0F 00 00 00 00 00 
13:59:34:0831 Rx 1 0x188 s 7 33 17 00 00 00 00 00 
13:59:34:0881 Rx 1 0x080 s 0 
13:59:34:1091 Rx 1 0x080 s 0 
13:59:34:1291 Rx 1 0x080 s 0 
13:59:34:1371 Rx 1 0x188 s 7 37 96 00 00 00 00 00 
13:59:34:1421 Rx 1 0x188 s 7 70 16 00 00 00 00 00 
13:59:34:1421 Rx 1 0x208 s 6 0F 00 C8 00 00 00 
13:59:34:1481 Rx 1 0x080 s 0 
13:59:34:1601 Rx 1 0x708 s 1 05 
13:59:34:1641 Rx 1 0x208 s 6 06 00 00 00 00 00 
13:59:34:1641 Rx 1 0x188 s 7 70 17 00 00 00 00 00 
13:59:34:1691 Rx 1 0x188 s 7 31 16 00 00 00 00 00 
13:59:34:1691 Rx 1 0x080 s 0 
13:59:34:1831 Rx 1 0x208 s 6 07 00 00 00 00 00 
13:59:34:1831 Rx 1 0x188 s 7 31 17 00 00 00 00 00 
13:59:34:1881 Rx 1 0x188 s 7 33 16 00 00 00 00 00 
13:59:34:1891 Rx 1 0x080 s 0 
13:59:34:2041 Rx 1 0x208 s 6 0F 00 00 00 00 00 
13:59:34:2041 Rx 1 0x188 s 7 33 17 00 00 00 00 00 
13:59:34:2081 Rx 1 0x080 s 0 
13:59:34:2291 Rx 1 0x080 s 0 
13:59:34:2481 Rx 1 0x080 s 0 
13:59:34:2541 Rx 1 0x388 s 4 00 00 00 00 
13:59:34:2541 Rx 1 0x288 s 8 11 00 00 00 00 00 20 40 
13:59:34:2581 Rx 1 0x188 s 7 37 96 00 00 00 00 00 
13:59:34:2591 Rx 1 0x708 s 1 85 
13:59:34:2631 Rx 1 0x188 s 7 70 16 00 00 00 00 00 
13:59:34:2631 Rx 1 0x208 s 6 0F 00 C8 00 00 00 
13:59:34:2681 Rx 1 0x080 s 0 
13:59:34:2841 Rx 1 0x208 s 6 0F 00 00 00 00 00 
13:59:34:2891 Rx 1 0x080 s 0 
13:59:34:3091 Rx 1 0x080 s 0 
13:59:34:3281 Rx 1 0x080 s 0 
13:59:34:3491 Rx 1 0x080 s 0 
13:59:34:3591 Rx 1 0x708 s 1 05 
13:59:34:3691 Rx 1 0x080 s 0 
13:59:34:3891 Rx 1 0x080 s 0 
13:59:34:4091 Rx 1 0x080 s 0 
13:59:34:4301 Rx 1 0x080 s 0 
13:59:34:4491 Rx 1 0x080 s 0 
13:59:34:4601 Rx 1 0x708 s 1 85 
13:59:34:4701 Rx 1 0x080 s 0 
13:59:34:4901 Rx 1 0x080 s 0 
13:59:34:5091 Rx 1 0x080 s 0 
13:59:34:5291 Rx 1 0x080 s 0 
13:59:34:5501 Rx 1 0x080 s 0 
13:59:34:5601 Rx 1 0x708 s 1 05 
13:59:34:5701 Rx 1 0x080 s 0 
13:59:34:5901 Rx 1 0x080 s 0 
13:59:34:6101 Rx 1 0x080 s 0 
13:59:34:6301 Rx 1 0x080 s 0 
13:59:34:6491 Rx 1 0x080 s 0 
13:59:34:6531 Rx 1 0x388 s 4 00 00 00 00 
13:59:34:6541 Rx 1 0x288 s 8 11 00 00 00 00 00 30 40 
13:59:34:6601 Rx 1 0x708 s 1 85 
13:59:34:6701 Rx 1 0x080 s 0 
13:59:34:6891 Rx 1 0x080 s 0 
13:59:34:7101 Rx 1 0x080 s 0 
13:59:34:7301 Rx 1 0x080 s 0 
13:59:34:7511 Rx 1 0x080 s 0 
13:59:34:7601 Rx 1 0x708 s 1 05 
13:59:34:7701 Rx 1 0x080 s 0 
13:59:34:7901 Rx 1 0x080 s 0 
13:59:34:8101 Rx 1 0x080 s 0 
13:59:34:8301 Rx 1 0x080 s 0 
13:59:34:8501 Rx 1 0x080 s 0 
13:59:34:8611 Rx 1 0x708 s 1 85 
13:59:34:8701 Rx 1 0x080 s 0 
13:59:34:8901 Rx 1 0x080 s 0 
13:59:34:9101 Rx 1 0x080 s 0 
13:59:34:9301 Rx 1 0x080 s 0 
13:59:34:9501 Rx 1 0x080 s 0 
13:59:34:9611 Rx 1 0x708 s 1 05 
13:59:34:9701 Rx 1 0x080 s 0 
13:59:34:9901 Rx 1 0x080 s 0 
13:59:35:0101 Rx 1 0x080 s 0 
13:59:35:0301 Rx 1 0x080 s 0 
13:59:35:0501 Rx 1 0x080 s 0 
13:59:35:0531 Rx 1 0x388 s 4 00 00 00 00 
13:59:35:0531 Rx 1 0x288 s 8 11 00 00 00 00 00 30 40 
13:59:35:0611 Rx 1 0x708 s 1 85 
13:59:35:0701 Rx 1 0x080 s 0 
13:59:35:0901 Rx 1 0x080 s 0 
13:59:35:1101 Rx 1 0x080 s 0 
13:59:35:1301 Rx 1 0x080 s 0 
13:59:35:1501 Rx 1 0x080 s 0 
13:59:35:1611 Rx 1 0x708 s 1 05 
13:59:35:1701 Rx 1 0x080 s 0 
13:59:35:1901 Rx 1 0x080 s 0 
13:59:35:2111 Rx 1 0x080 s 0 
13:59:35:2311 Rx 1 0x080 s 0 
13:59:35:2501 Rx 1 0x080 s 0 
13:59:35:2611 Rx 1 0x708 s 1 85 
13:59:35:2711 Rx 1 0x080 s 0 
13:59:35:2901 Rx 1 0x080 s 0 
13:59:35:3061 Rx 1 0x208 s 6 80 00 00 00 00 00 
13:59:35:3101 Rx 1 0x080 s 0 
13:59:35:3311 Rx 1 0x080 s 0 
13:59:35:3501 Rx 1 0x080 s 0 
13:59:35:3621 Rx 1 0x708 s 1 05 
13:59:35:3701 Rx 1 0x080 s 0 
13:59:35:3901 Rx 1 0x080 s 0 
13:59:35:4111 Rx 1 0x080 s 0 
13:59:35:4311 Rx 1 0x080 s 0 
13:59:35:4511 Rx 1 0x080 s 0 
13:59:35:4521 Rx 1 0x288 s 8 00 00 00 00 00 00 40 40 
13:59:35:4551 Rx 1 0x308 s 4 00 00 00 00 
13:59:35:4561 Rx 1 0x388 s 4 00 00 00 00 
13:59:35:4621 Rx 1 0x708 s 1 85 
13:59:35:4711 Rx 1 0x080 s 0 
13:59:35:4861 Rx 1 0x208 s 6 06 00 00 00 00 00 
13:59:35:4871 Rx 1 0x188 s 7 70 17 00 00 00 00 00 
13:59:35:4911 Rx 1 0x080 s 0 
13:59:35:4911 Rx 1 0x188 s 7 31 16 00 00 00 00 00 
13:59:35:5061 Rx 1 0x208 s 6 07 00 00 00 00 00 
13:59:35:5061 Rx 1 0x188 s 7 31 17 00 00 00 00 00 
13:59:35:5111 Rx 1 0x080 s 0 
13:59:35:5111 Rx 1 0x188 s 7 33 16 00 00 00 00 00 
13:59:35:5251 Rx 1 0x208 s 6 0F 00 00 00 00 00 
13:59:35:5261 Rx 1 0x188 s 7 33 17 00 00 00 00 00 
13:59:35:5311 Rx 1 0x080 s 0 
13:59:35:5511 Rx 1 0x080 s 0 
13:59:35:5711 Rx 1 0x080 s 0 
13:59:35:5791 Rx 1 0x188 s 7 37 96 00 00 00 00 00 
13:59:35:5841 Rx 1 0x188 s 7 70 16 00 00 00 00 00 
13:59:35:5851 Rx 1 0x208 s 6 0F 00 C8 00 00 00 
13:59:35:5911 Rx 1 0x080 s 0 
13:59:35:6061 Rx 1 0x208 s 6 06 00 00 00 00 00 
13:59:35:6071 Rx 1 0x188 s 7 70 17 00 00 00 00 00 
13:59:35:6111 Rx 1 0x080 s 0 
13:59:35:6121 Rx 1 0x188 s 7 31 16 00 00 00 00 00 
13:59:35:6241 Rx 1 0x208 s 6 07 00 00 00 00 00 
13:59:35:6251 Rx 1 0x188 s 7 31 17 00 00 00 00 00 
13:59:35:6301 Rx 1 0x188 s 7 33 16 00 00 00 00 00 
13:59:35:6311 Rx 1 0x080 s 0 
13:59:35:6451 Rx 1 0x208 s 6 0F 00 00 00 00 00 
13:59:35:6461 Rx 1 0x188 s 7 33 17 00 00 00 00 00 
13:59:35:6511 Rx 1 0x080 s 0 
13:59:35:6611 Rx 1 0x708 s 1 7F 
13:59:35:6711 Rx 1 0x080 s 0 
13:59:35:6911 Rx 1 0x080 s 0 
13:59:35:7111 Rx 1 0x080 s 0 
13:59:35:7321 Rx 1 0x080 s 0 
13:59:35:7521 Rx 1 0x080 s 0 
13:59:35:7721 Rx 1 0x080 s 0 
13:59:35:7751 Rx 1 0x708 s 1 00 
13:59:35:7811 Rx 1 0x608 s 8 40 00 10 00 00 00 00 00 
13:59:35:7821 Rx 1 0x588 s 8 43 00 10 00 92 01 06 00 
13:59:35:7911 Rx 1 0x080 s 0 
13:59:35:7951 Rx 1 0x608 s 8 40 18 10 01 00 00 00 00 
13:59:35:7961 Rx 1 0x588 s 8 43 18 10 01 A3 01 00 00 
13:59:35:8121 Rx 1 0x080 s 0 
13:59:35:8161 Rx 1 0x608 s 8 23 05 10 00 80 00 00 00 
13:59:35:8171 Rx 1 0x588 s 8 60 05 10 00 00 00 00 00 
13:59:35:8221 Rx 1 0x608 s 8 23 06 10 00 20 4E 00 00 
13:59:35:8221 Rx 1 0x588 s 8 60 06 10 00 00 00 00 00 
13:59:35:8311 Rx 1 0x080 s 0 
13:59:35:8361 Rx 1 0x608 s 8 2B 0C 10 00 64 00 00 00 
13:59:35:8371 Rx 1 0x588 s 8 60 0C 10 00 00 00 00 00 
13:59:35:8421 Rx 1 0x608 s 8 2F 0D 10 00 02 00 00 00 
13:59:35:8431 Rx 1 0x588 s 8 60 0D 10 00 00 00 00 00 
13:59:35:8511 Rx 1 0x080 s 0 
13:59:35:8561 Rx 1 0x608 s 8 23 14 10 00 88 00 00 80 
13:59:35:8561 Rx 1 0x588 s 8 60 14 10 00 00 00 00 00 
13:59:35:8571 Rx 1 0x708 s 1 7F 
13:59:35:8621 Rx 1 0x608 s 8 2B 17 10 00 00 00 00 00 
13:59:35:8621 Rx 1 0x588 s 8 60 17 10 00 00 00 00 00 
13:59:35:8711 Rx 1 0x080 s 0 
13:59:35:8751 Rx 1 0x608 s 8 23 00 14 01 08 02 00 80 
13:59:35:8751 Rx 1 0x588 s 8 60 00 14 01 00 00 00 00 
13:59:35:8821 Rx 1 0x608 s 8 2F 00 14 02 FF 00 00 00 
13:59:35:8821 Rx 1 0x588 s 8 60 00 14 02 00 00 00 00 
13:59:35:8911 Rx 1 0x080 s 0 
13:59:35:8951 Rx 1 0x608 s 8 2F 00 16 00 00 00 00 00 
13:59:35:8961 Rx 1 0x588 s 8 60 00 16 00 00 00 00 00 
13:59:35:9021 Rx 1 0x608 s 8 23 00 16 01 10 00 40 60 
13:59:35:9031 Rx 1 0x588 s 8 60 00 16 01 00 00 00 00 
13:59:35:9121 Rx 1 0x080 s 0 
13:59:35:9151 Rx 1 0x608 s 8 23 00 16 02 20 00 FF 60 
13:59:35:9161 Rx 1 0x588 s 8 60 00 16 02 00 00 00 00 
13:59:35:9221 Rx 1 0x608 s 8 2F 00 16 00 02 00 00 00 
13:59:35:9231 Rx 1 0x588 s 8 60 00 16 00 00 00 00 00 
13:59:35:9321 Rx 1 0x080 s 0 
13:59:35:9351 Rx 1 0x608 s 8 23 00 14 01 08 02 00 00 
13:59:35:9371 Rx 1 0x588 s 8 60 00 14 01 00 00 00 00 
13:59:35:9421 Rx 1 0x608 s 8 23 01 14 01 08 03 00 80 
13:59:35:9421 Rx 1 0x588 s 8 60 01 14 01 00 00 00 00 
13:59:35:9511 Rx 1 0x080 s 0 
13:59:35:9551 Rx 1 0x608 s 8 2F 01 14 02 64 00 00 00 
13:59:35:9561 Rx 1 0x588 s 8 60 01 14 02 00 00 00 00 
13:59:35:9571 Rx 1 0x708 s 1 FF 
13:59:35:9631 Rx 1 0x608 s 8 2F 01 16 00 00 00 00 00 
13:59:35:9631 Rx 1 0x588 s 8 60 01 16 00 00 00 00 00 
13:59:35:9711 Rx 1 0x080 s 0 
13:59:35:9751 Rx 1 0x608 s 8 23 01 16 01 20 00 7A 60 
13:59:35:9751 Rx 1 0x588 s 8 60 01 16 01 00 00 00 00 
13:59:35:9821 Rx 1 0x608 s 8 2F 01 16 00 01 00 00 00 
13:59:35:9831 Rx 1 0x588 s 8 60 01 16 00 00 00 00 00 
13:59:35:9921 Rx 1 0x080 s 0 
13:59:35:9961 Rx 1 0x608 s 8 23 01 14 01 08 03 00 00 
13:59:35:9961 Rx 1 0x588 s 8 60 01 14 01 00 00 00 00 
13:59:36:0021 Rx 1 0x608 s 8 23 00 18 01 88 01 00 80 
13:59:36:0031 Rx 1 0x588 s 8 60 00 18 01 00 00 00 00 
13:59:36:0121 Rx 1 0x608 s 8 2F 00 18 02 FF 00 00 00 
13:59:36:0131 Rx 1 0x588 s 8 60 00 18 02 00 00 00 00 
13:59:36:0231 Rx 1 0x080 s 0 
13:59:36:0271 Rx 1 0x608 s 8 2B 00 18 03 32 00 00 00 
13:59:36:0271 Rx 1 0x588 s 8 60 00 18 03 00 00 00 00 
13:59:36:0331 Rx 1 0x608 s 8 2B 00 18 05 00 00 00 00 
13:59:36:0331 Rx 1 0x588 s 8 60 00 18 05 00 00 00 00 
13:59:36:0421 Rx 1 0x080 s 0 
13:59:36:0461 Rx 1 0x608 s 8 2F 00 1A 00 00 00 00 00 
13:59:36:0471 Rx 1 0x588 s 8 60 00 1A 00 00 00 00 00 
13:59:36:0531 Rx 1 0x608 s 8 23 00 1A 01 10 00 41 60 
13:59:36:0541 Rx 1 0x588 s 8 60 00 1A 01 00 00 00 00 
13:59:36:0541 Rx 1 0x708 s 1 7F 
13:59:36:0631 Rx 1 0x080 s 0 
13:59:36:0661 Rx 1 0x608 s 8 23 00 1A 02 08 00 02 21 
13:59:36:0671 Rx 1 0x588 s 8 60 00 1A 02 00 00 00 00 
13:59:36:0731 Rx 1 0x608 s 8 23 00 1A 03 20 00 6C 60 
13:59:36:0731 Rx 1 0x588 s 8 60 00 1A 03 00 00 00 00 
13:59:36:0831 Rx 1 0x080 s 0 
13:59:36:0871 Rx 1 0x608 s 8 2F 00 1A 00 03 00 00 00 
13:59:36:0871 Rx 1 0x588 s 8 60 00 1A 00 00 00 00 00 
13:59:36:0931 Rx 1 0x608 s 8 23 00 18 01 88 01 00 00 
13:59:36:0941 Rx 1 0x588 s 8 60 00 18 01 00 00 00 00 
13:59:36:1021 Rx 1 0x080 s 0 
13:59:36:1061 Rx 1 0x608 s 8 23 01 18 01 88 02 00 80 
13:59:36:1071 Rx 1 0x588 s 8 60 01 18 01 00 00 00 00 
13:59:36:1131 Rx 1 0x608 s 8 2F 01 18 02 14 00 00 00 
13:59:36:1141 Rx 1 0x588 s 8 60 01 18 02 00 00 00 00 
13:59:36:1221 Rx 1 0x080 s 0 
13:59:36:1261 Rx 1 0x608 s 8 2B 01 18 03 2C 01 00 00 
13:59:36:1271 Rx 1 0x588 s 8 60 01 18 03 00 00 00 00 
13:59:36:1331 Rx 1 0x608 s 8 2B 01 18 05 00 00 00 00 
13:59:36:1331 Rx 1 0x588 s 8 60 01 18 05 00 00 00 00 
13:59:36:1431 Rx 1 0x080 s 0 
13:59:36:1471 Rx 1 0x608 s 8 2F 01 1A 00 00 00 00 00 
13:59:36:1481 Rx 1 0x588 s 8 60 01 1A 00 00 00 00 00 
13:59:36:1531 Rx 1 0x608 s 8 23 01 1A 01 10 00 00 20 
13:59:36:1541 Rx 1 0x588 s 8 60 01 1A 01 00 00 00 00 
13:59:36:1541 Rx 1 0x708 s 1 FF 
13:59:36:1631 Rx 1 0x080 s 0 
13:59:36:1671 Rx 1 0x608 s 8 23 01 1A 02 10 00 02 20 
13:59:36:1681 Rx 1 0x588 s 8 60 01 1A 02 00 00 00 00 
